;$FILEVERSION=1.1
;$STARTTIME=46018.8034820880
;
;   Start time: 27/12/2025 21:17:00.852.4
;   PCAN-Channel: PCAN_USBBUS1
;   Driver version: PCBUSB 0.13.0.1978 - (IOUSBKit, x86_64)
;   Generated by PCBUSB API, version 4.9.0.1
;
;   Message Number
;   |         Time Offset (ms)
;   |         |        Type
;   |         |        |        ID (hex)
;   |         |        |        |     Data Length Code
;   |         |        |        |     |   Data Bytes (hex) ...
;   |         |        |        |     |   |
;---+--   ----+----  --+--  ----+---  +  -+ -- -- -- -- -- -- --
     1)     35867.4  Rx     08508A00  1  10 
     2)     35867.8  Rx     08508A00  1  10 
     3)     35868.1  Rx     08508A00  1  10 
     4)     35868.4  Rx     08508A00  1  10 
     5)     35868.7  Rx     08508A00  1  10 
     6)     35869.0  Rx     08508A00  1  10 
     7)     35869.3  Rx     08508A00  1  10 
     8)     35869.6  Rx     08508A00  1  10 
     9)     35870.0  Rx     08508A00  1  10 
    10)     35870.3  Rx     08508A00  1  10 
    11)     35870.6  Rx     08508A00  1  10 
    12)     35870.9  Rx     08508A00  1  10 
    13)     35871.2  Rx     08508A00  1  10 
    14)     35871.6  Rx     08508A00  1  10 
    15)     35871.9  Rx     08508A00  1  10 
    16)     35872.2  Rx     08508A00  1  10 
    17)     36267.6  Rx     08508A00  1  10 
    18)     36267.9  Rx     08508A00  1  10 
    19)     36268.2  Rx     08508A00  1  10 
    20)     36268.5  Rx     08508A00  1  10 
    21)     36269.7  Rx     08508A00  1  10 
    22)     36270.0  Rx     08508A00  1  10 
    23)     36270.3  Rx     08508A00  1  10 
    24)     36271.6  Rx     08508A00  1  10 
    25)     36272.0  Rx     08508A00  1  10 
    26)     36272.3  Rx     08508A00  1  10 
    27)     36272.6  Rx     08508A00  1  10 
    28)     36273.7  Rx     08508A00  1  10 
    29)     36274.0  Rx     08508A00  1  10 
    30)     36274.3  Rx     08508A00  1  10 
    31)     36274.6  Rx     08508A00  1  10 
    32)     36275.7  Rx     08508A00  1  10 
    33)     36276.0  Rx     08508A00  1  00 
    34)     36276.3  Rx     08508A00  1  00 
    35)     36276.6  Rx     08508A00  1  00 
    36)     36277.0  Rx     08508A00  1  00 
    37)     36341.0  Rx     08508A00  1  00 
    38)     36341.3  Rx     08508A00  1  00 
    39)     36341.9  Rx     14320101  8  00 40 7F FF FF FF FF FF 
    40)     36491.1  Rx     08508A00  1  00 
    41)     36491.4  Rx     08508A00  1  00 
    42)     36520.8  Rx     08508A00  1  00 
    43)     36521.2  Rx     08508A00  1  00 
    44)     36521.5  Rx     08508A00  1  00 
    45)     36521.8  Rx     08508A00  1  00 
    46)     36522.1  Rx     08508A00  1  00 
    47)     36522.4  Rx     08508A00  1  00 
    48)     36522.7  Rx     08508A00  1  00 
    49)     36523.1  Rx     08508A00  1  00 
    50)     36523.4  Rx     08508A00  1  00 
    51)     36523.7  Rx     08508A00  1  00 
    52)     36525.1  Rx     08508A00  1  00 
    53)     36525.4  Rx     08508A00  1  00 
    54)     36525.8  Rx     08508A00  1  00 
    55)     36526.1  Rx     08508A00  1  00 
    56)     36526.4  Rx     08508A00  1  00 
    57)     36526.7  Rx     08508A00  1  00 
    58)     36527.0  Rx     08508A00  1  00 
    59)     36527.3  Rx     08508A00  1  00 
    60)     36527.7  Rx     08508A00  1  00 
    61)     36528.0  Rx     08508A00  1  00 
    62)     36528.3  Rx     08508A00  1  00 
    63)     36528.7  Rx     08508A00  1  00 
    64)     36591.0  Rx     08508A00  1  00 
    65)     36592.3  Rx     08508A00  1  00 
    66)     36592.7  Rx     08508A00  1  00 
    67)     36593.3  Rx     14320101  8  00 40 7F FF FF FF FF FF 
    68)     36593.8  Rx     14320101  8  00 40 7F FF FF FF FF FF 
    69)     36594.4  Rx     14320101  8  00 40 7F FF FF FF FF FF 
    70)     36742.3  Rx     08508A00  1  00 
    71)     36742.6  Rx     08508A00  1  00 
    72)     36770.4  Rx     08508A00  1  00 
    73)     36770.7  Rx     08508A00  1  00 
    74)     36864.1  Rx     00102000  0  
    75)     37861.5  Rx     1C105000  0  
    76)     38806.3  Rx     08508A00  1  00 
    77)     38861.5  Rx     1C105000  0  
    78)     39837.3  Rx     14320101  8  00 40 12 C1 00 14 00 00 
    79)     39837.9  Rx     14320501  8  15 4A 00 00 00 00 0B 02 
    80)     39838.4  Rx     14320601  8  12 5C 16 44 12 5C 16 44 
    81)     39861.4  Rx     1C105000  0  
    82)     40837.1  Rx     14320101  8  00 40 12 C1 00 14 00 00 
    83)     40837.6  Rx     14320501  8  15 4A 00 00 00 00 0B 02 
    84)     40838.2  Rx     14321001  8  00 00 00 00 00 02 00 00 
    85)     40838.5  Rx     08508A00  1  00 
    86)     40839.1  Rx     14320601  8  12 5C 16 44 12 5C 16 44 
    87)     40861.3  Rx     1C105000  0  
    88)     41837.3  Rx     14320101  8  00 40 12 C1 00 14 00 00 
    89)     41837.8  Rx     14320501  8  15 4A 00 00 00 00 0B 02 
    90)     41838.4  Rx     14321001  8  00 00 00 00 00 04 00 00 
    91)     41838.7  Rx     08508A00  1  00 
    92)     41839.0  Rx     08508A00  1  00 
    93)     41839.6  Rx     14320601  8  12 5C 16 44 12 5C 16 44 
    94)     41861.1  Rx     1C105000  0  
    95)     41861.4  Rx     00102000  0  
    96)     42836.8  Rx     14320101  8  00 40 12 C1 00 14 00 00 
    97)     42837.2  Rx     09508A00  6  52 C9 42 3C 0B 72 
    98)     42837.8  Rx     14320601  8  12 5C 16 44 12 5C 16 44 
    99)     42838.4  Rx     14321001  8  00 00 00 00 00 06 00 00 
   100)     42838.9  Rx     14320501  8  15 4A 00 00 00 00 0B 02 
   101)     42861.0  Rx     1C105000  0  
   102)     43836.6  Rx     14320101  8  00 40 12 C1 00 14 00 00 
   103)     43837.2  Rx     14320501  8  15 4A 00 55 00 AA 2B 02 
   104)     43837.7  Rx     14321001  8  00 00 00 00 00 08 00 00 
   105)     43838.1  Rx     08508A00  1  00 
   106)     43838.4  Rx     08508A00  1  00 
   107)     43839.0  Rx     14324001  8  00 00 00 57 00 CD 9A FF 
   108)     43839.5  Rx     14320601  8  12 5C 16 44 12 5C 16 44 
   109)     43860.8  Rx     1C105000  0  
   110)     44836.4  Rx     14320101  8  00 40 12 C1 00 14 00 00 
   111)     44836.9  Rx     09508A00  6  52 D1 42 3C 0B 72 
   112)     44837.4  Rx     14320601  8  12 5C 16 44 12 5C 16 44 
   113)     44838.0  Rx     14321001  8  00 00 00 00 00 0A 00 00 
   114)     44838.6  Rx     14320501  8  15 4A 00 55 00 AA 2B 02 
   115)     44860.7  Rx     1C105000  0  
   116)     45836.2  Rx     14320101  8  00 40 12 C1 00 14 00 00 
   117)     45836.8  Rx     14320501  8  15 4A 00 55 00 AA 2B 02 
   118)     45837.4  Rx     14321001  8  00 00 00 00 00 0C 00 00 
   119)     45837.9  Rx     14320601  8  12 5C 16 44 12 5C 16 44 
   120)     45839.6  Rx     08508A00  1  00 
   121)     45860.5  Rx     1C105000  0  
   122)     46836.0  Rx     14320101  8  00 40 12 C1 00 14 00 00 
   123)     46836.5  Rx     09508A00  6  52 D9 42 3C 0B 72 
   124)     46837.0  Rx     14320601  8  12 5C 16 44 12 5C 16 44 
   125)     46837.3  Rx     08F08B00  0  
   126)     46837.9  Rx     14321001  8  00 00 00 00 00 0E 00 00 
   127)     46838.4  Rx     14320501  8  15 4A 00 55 00 AA 2B 02 
   128)     46860.3  Rx     1C105000  0  
   129)     46860.6  Rx     00102000  0  
   130)     47835.8  Rx     14320101  8  00 40 12 C1 00 14 00 00 
   131)     47836.4  Rx     14320501  8  15 4A 00 55 00 AA 2B 02 
   132)     47836.9  Rx     14321001  8  00 00 00 00 00 10 00 00 
   133)     47837.5  Rx     14320601  8  12 5C 16 44 12 5C 16 44 
   134)     47839.3  Rx     08508A00  1  00 
   135)     47860.0  Rx     1C105000  0  
   136)     48835.7  Rx     14320101  8  00 40 12 C1 00 14 00 00 
   137)     48836.1  Rx     09508A00  6  52 E1 42 3C 0B 72 
   138)     48836.7  Rx     14320601  8  12 5C 16 44 12 5C 16 44 
   139)     48837.0  Rx     08708B00  0  
   140)     48837.3  Rx     08508A00  1  00 
   141)     48837.6  Rx     08508A00  1  00 
   142)     48838.2  Rx     14321001  8  00 00 00 00 00 12 00 00 
   143)     48838.7  Rx     14320501  8  15 4A 00 55 00 AA 2B 02 
   144)     48859.9  Rx     1C105000  0  
   145)     49835.5  Rx     14320101  8  00 40 12 C1 00 14 00 00 
   146)     49836.1  Rx     14320501  8  15 4A 00 55 00 AA 2B 02 
   147)     49836.7  Rx     14321001  8  00 00 00 00 00 14 00 00 
   148)     49837.2  Rx     14320601  8  12 5C 16 44 12 5C 16 44 
   149)     49859.7  Rx     1C105000  0  
   150)     50835.4  Rx     14320101  8  00 40 12 C1 00 14 00 00 
   151)     50835.8  Rx     09508A00  6  52 E9 42 3C 0B 72 
   152)     50836.4  Rx     14320601  8  12 5C 16 44 12 5C 16 44 
   153)     50837.0  Rx     14321001  8  00 00 00 00 00 16 00 00 
   154)     50837.5  Rx     14320501  8  15 4A 00 55 00 AA 2B 02 
   155)     50838.9  Rx     08508A00  1  00 
   156)     50859.6  Rx     1C105000  0  
   157)     51835.2  Rx     14320101  8  00 40 12 C1 00 14 00 00 
   158)     51835.8  Rx     14320501  8  15 4A 00 55 00 AA 2B 02 
   159)     51836.4  Rx     14321001  8  00 00 00 00 00 18 00 00 
   160)     51837.0  Rx     14320601  8  12 5C 16 44 12 5C 16 44 
   161)     51859.5  Rx     1C105000  0  
   162)     51859.8  Rx     00102000  0  
   163)     52835.1  Rx     14320101  8  00 40 12 C1 00 14 00 00 
   164)     52835.6  Rx     09508A00  6  52 F1 42 3C 0B 72 
   165)     52836.2  Rx     14320601  8  12 5C 16 44 12 5C 16 44 
   166)     52836.8  Rx     14321001  8  00 00 00 00 00 1A 00 00 
   167)     52837.3  Rx     14320501  8  15 4A 00 55 00 AA 2B 02 
   168)     52838.7  Rx     08508A00  1  00 
   169)     52859.3  Rx     1C105000  0  
   170)     53834.9  Rx     14320101  8  00 40 12 C1 00 14 00 00 
   171)     53835.5  Rx     14320501  8  15 4A 00 55 00 AA 2B 02 
   172)     53836.1  Rx     14321001  8  00 00 00 00 00 1C 00 00 
   173)     53836.7  Rx     14320601  8  12 5C 16 44 12 5C 16 44 
   174)     53859.2  Rx     1C105000  0  
   175)     54834.8  Rx     14320101  8  00 40 12 C1 00 14 00 00 
   176)     54835.3  Rx     09508A00  6  52 F9 42 3C 0B 72 
   177)     54835.8  Rx     14320601  8  12 5C 16 44 12 5C 16 44 
   178)     54836.4  Rx     14321001  8  00 00 00 00 00 1E 00 00 
   179)     54837.0  Rx     14320501  8  15 4A 00 55 00 AA 2B 02 
   180)     54838.3  Rx     08508A00  1  00 
   181)     54859.0  Rx     1C105000  0  
   182)     55834.6  Rx     14320101  8  00 40 12 C1 00 14 00 00 
   183)     55835.2  Rx     14320501  8  15 4A 00 55 00 AA 2B 02 
   184)     55835.8  Rx     14321001  8  00 00 00 00 00 20 00 00 
   185)     55836.4  Rx     14320601  8  12 5C 16 44 12 5C 16 44 
   186)     55858.9  Rx     1C105000  0  
   187)     56834.5  Rx     14320101  8  00 40 12 C1 00 14 00 00 
   188)     56835.0  Rx     09508A00  6  53 01 42 3C 0B 72 
   189)     56835.5  Rx     14320601  8  12 5C 16 44 12 5C 16 44 
   190)     56836.1  Rx     14321001  8  00 00 00 00 00 22 00 00 
   191)     56836.4  Rx     08F08B00  0  
   192)     56836.9  Rx     14320501  8  15 4A 00 55 00 AA 2B 02 
   193)     56838.0  Rx     08508A00  1  00 
   194)     56858.7  Rx     1C105000  0  
   195)     56859.0  Rx     00102000  0  
   196)     57834.4  Rx     14320101  8  00 40 12 C1 00 14 00 00 
   197)     57834.9  Rx     14320501  8  15 4A 00 55 00 AA 2B 02 
   198)     57835.5  Rx     14321001  8  00 00 00 00 00 24 00 00 
   199)     57836.1  Rx     14320601  8  12 5C 16 44 12 5C 16 44 
   200)     57858.6  Rx     1C105000  0  
   201)     58834.2  Rx     14320101  8  00 40 12 C1 00 14 00 00 
   202)     58834.7  Rx     09508A00  6  53 09 42 3C 0B 72 
   203)     58835.2  Rx     14320601  8  12 5C 16 44 12 5C 16 44 
   204)     58835.5  Rx     08708B00  0  
   205)     58836.1  Rx     14321001  8  00 00 00 00 00 26 00 00 
   206)     58836.6  Rx     14320501  8  15 4A 00 55 00 AA 2B 02 
   207)     58837.8  Rx     08508A00  1  00 
   208)     58858.4  Rx     1C105000  0  
   209)     59834.1  Rx     14320101  8  00 40 12 C1 00 14 00 00 
   210)     59834.6  Rx     14320501  8  15 4A 00 55 00 AA 2B 02 
   211)     59835.2  Rx     14321001  8  00 00 00 00 00 28 00 00 
   212)     59835.8  Rx     14320601  8  12 5C 16 44 12 5C 16 44 
   213)     59858.3  Rx     1C105000  0  
   214)     60833.9  Rx     14320101  8  00 40 12 C1 00 14 00 00 
   215)     60834.4  Rx     09508A00  6  53 11 42 3C 0B 72 
   216)     60834.9  Rx     14320601  8  12 5C 16 44 12 5C 16 44 
   217)     60835.5  Rx     14321001  8  00 00 00 00 00 2A 00 00 
   218)     60836.0  Rx     14320501  8  15 4A 00 55 00 AA 2B 02 
   219)     60837.4  Rx     08508A00  1  00 
   220)     60858.1  Rx     1C105000  0  
   221)     61833.7  Rx     14320101  8  00 40 12 C1 00 14 00 00 
   222)     61834.2  Rx     14320501  8  15 4A 00 55 00 AA 2B 02 
   223)     61834.8  Rx     14321001  8  00 00 00 00 00 2C 00 00 
   224)     61835.3  Rx     14320601  8  12 5C 16 44 12 5C 16 44 
   225)     61857.9  Rx     1C105000  0  
   226)     61858.2  Rx     00102000  0  
   227)     62833.5  Rx     14320101  8  00 40 12 C1 00 14 00 00 
   228)     62833.9  Rx     09508A00  6  53 19 42 3C 0B 72 
   229)     62834.5  Rx     14320601  8  12 5C 16 44 12 5C 16 44 
   230)     62835.1  Rx     14321001  8  00 00 00 00 00 2E 00 00 
   231)     62835.7  Rx     14320501  8  15 4A 00 55 00 AA 2B 02 
   232)     62837.0  Rx     08508A00  1  00 
   233)     62857.7  Rx     1C105000  0  
   234)     63833.2  Rx     14320101  8  00 40 12 C1 00 14 00 00 
   235)     63833.8  Rx     14320501  8  15 4A 00 55 00 AA 2B 02 
   236)     63834.3  Rx     14321001  8  00 00 00 00 00 30 00 00 
   237)     63834.9  Rx     14320601  8  12 5C 16 44 12 5C 16 44 
   238)     63857.5  Rx     1C105000  0  
   239)     64833.0  Rx     14320101  8  00 40 12 C1 00 14 00 00 
   240)     64833.5  Rx     09508A00  6  53 21 42 3C 0B 72 
   241)     64834.0  Rx     14320601  8  12 5C 16 44 12 5C 16 44 
   242)     64834.6  Rx     14321001  8  00 00 00 00 00 32 00 00 
   243)     64835.2  Rx     14320501  8  15 4A 00 55 00 AA 2B 02 
   244)     64836.5  Rx     08508A00  1  00 
   245)     64857.2  Rx     1C105000  0  
   246)     65832.8  Rx     14320101  8  00 40 12 C1 00 10 00 00 
   247)     65833.3  Rx     14320501  8  15 4A 00 55 00 AA 2B 02 
   248)     65833.9  Rx     14321001  8  00 00 00 00 00 33 00 00 
   249)     65834.4  Rx     14320601  8  12 5C 16 44 12 5C 16 44 
   250)     65857.0  Rx     1C105000  0  
   251)     66832.5  Rx     14320101  8  00 40 12 C1 00 10 00 00 
   252)     66832.9  Rx     09508A00  6  53 2A 42 3C 0B 72 
   253)     66833.5  Rx     14320601  8  12 5C 16 44 12 5C 16 44 
   254)     66834.0  Rx     14321001  8  00 00 00 00 00 34 00 00 
   255)     66834.3  Rx     08F08B00  0  
   256)     66834.9  Rx     14320501  8  15 4A 00 55 00 AA 2B 02 
   257)     66840.3  Rx     08508A00  1  00 
   258)     66856.7  Rx     1C105000  0  
   259)     66857.0  Rx     00102000  0  
   260)     67832.2  Rx     14320101  8  00 40 12 C1 00 10 00 00 
   261)     67832.7  Rx     14320501  8  15 4A 00 55 00 AA 2B 02 
   262)     67833.3  Rx     14321001  8  00 00 00 00 00 35 00 00 
   263)     67833.8  Rx     14320601  8  12 5C 16 44 12 5C 16 44 
   264)     67856.5  Rx     1C105000  0  
   265)     68831.9  Rx     14320101  8  00 40 12 C1 00 10 00 00 
   266)     68832.4  Rx     09508A00  6  53 33 42 3C 0B 72 
   267)     68832.9  Rx     14320601  8  12 5C 16 44 12 5C 16 44 
   268)     68833.2  Rx     08708B00  0  
   269)     68833.8  Rx     14321001  8  00 00 00 00 00 36 00 00 
   270)     68834.3  Rx     14320501  8  15 4A 00 55 00 AA 2B 02 
   271)     68839.1  Rx     08508A00  1  00 
   272)     68856.1  Rx     1C105000  0  
   273)     69831.6  Rx     14320101  8  00 40 12 C1 00 14 00 00 
   274)     69832.1  Rx     14320501  8  15 4A 00 55 00 AA 2B 02 
   275)     69832.7  Rx     14321001  8  00 00 00 00 00 38 00 00 
   276)     69833.2  Rx     14320601  8  12 5C 16 44 12 5C 16 44 
   277)     69855.8  Rx     1C105000  0  
   278)     70831.3  Rx     14320101  8  00 40 12 C1 00 14 00 00 
   279)     70831.8  Rx     09508A00  6  53 3B 42 3C 0B 72 
   280)     70832.3  Rx     14320601  8  12 5C 16 44 12 5C 16 44 
   281)     70832.9  Rx     14321001  8  00 00 00 00 00 3A 00 00 
   282)     70833.4  Rx     14320501  8  15 4A 00 55 00 AA 2B 03 
   283)     70842.9  Rx     08508A00  1  00 
   284)     70855.5  Rx     1C105000  0  
   285)     71831.0  Rx     14320101  8  00 40 12 C1 00 14 00 00 
   286)     71831.5  Rx     14320501  8  15 4A 00 55 00 AA 2B 03 
   287)     71832.1  Rx     14321001  8  00 00 00 00 00 3C 00 00 
   288)     71832.7  Rx     14320601  8  12 5C 16 44 12 5C 16 44 
   289)     71855.3  Rx     1C105000  0  
   290)     71855.5  Rx     00102000  0  
   291)     72830.7  Rx     14320101  8  00 40 12 C1 00 14 00 00 
   292)     72831.2  Rx     09508A00  6  53 43 42 3C 0B 72 
   293)     72831.7  Rx     14320601  8  12 5C 16 44 12 5C 16 44 
   294)     72832.3  Rx     14321001  8  00 00 00 00 00 3E 00 00 
   295)     72832.8  Rx     14320501  8  15 4A 00 55 00 AA 2B 03 
   296)     72842.9  Rx     08508A00  1  00 
   297)     72854.9  Rx     1C105000  0  
   298)     73830.3  Rx     14320101  8  00 40 12 C1 00 14 00 00 
   299)     73830.9  Rx     14320501  8  15 4A 00 55 00 AA 2B 03 
   300)     73831.5  Rx     14321001  8  00 00 00 00 00 40 00 00 
   301)     73832.0  Rx     14320601  8  12 5C 16 44 12 5C 16 44 
   302)     73854.6  Rx     1C105000  0  
   303)     74830.1  Rx     14320101  8  00 40 12 C1 00 14 00 00 
   304)     74830.5  Rx     09508A00  6  53 4B 42 3C 0B 72 
   305)     74831.1  Rx     14320601  8  12 5C 16 44 12 5C 16 44 
   306)     74831.7  Rx     14321001  8  00 00 00 00 00 42 00 00 
   307)     74832.2  Rx     14320501  8  15 4A 00 55 00 AA 2B 03 
   308)     74842.3  Rx     08508A00  1  00 
   309)     74854.3  Rx     1C105000  0  
   310)     75829.8  Rx     14320101  8  00 40 12 C1 00 14 00 00 
   311)     75830.3  Rx     14320501  8  15 4A 00 55 00 AA 2B 03 
   312)     75830.9  Rx     14321001  8  00 00 00 00 00 44 00 00 
   313)     75831.4  Rx     14320601  8  12 5C 16 44 12 5C 16 44 
   314)     75854.0  Rx     1C105000  0  
