;$FILEVERSION=1.1
;$STARTTIME=46018.8095336178
;
;   Start time: 27/12/2025 21:25:43.704.5
;   PCAN-Channel: PCAN_USBBUS1
;   Driver version: PCBUSB 0.13.0.1978 - (IOUSBKit, x86_64)
;   Generated by PCBUSB API, version 4.9.0.1
;
;   Message Number
;   |         Time Offset (ms)
;   |         |        Type
;   |         |        |        ID (hex)
;   |         |        |        |     Data Length Code
;   |         |        |        |     |   Data Bytes (hex) ...
;   |         |        |        |     |   |
;---+--   ----+----  --+--  ----+---  +  -+ -- -- -- -- -- -- --
     1)     17047.8  Rx     08508A00  1  10 
     2)     17048.1  Rx     08508A00  1  10 
     3)     17048.5  Rx     08508A00  1  10 
     4)     17048.8  Rx     08508A00  1  10 
     5)     17049.1  Rx     08508A00  1  10 
     6)     17049.4  Rx     08508A00  1  10 
     7)     17049.7  Rx     08508A00  1  10 
     8)     17050.0  Rx     08508A00  1  10 
     9)     17050.3  Rx     08508A00  1  10 
    10)     17050.6  Rx     08508A00  1  10 
    11)     17051.0  Rx     08508A00  1  10 
    12)     17051.3  Rx     08508A00  1  10 
    13)     17051.6  Rx     08508A00  1  10 
    14)     17051.9  Rx     08508A00  1  10 
    15)     17052.2  Rx     08508A00  1  10 
    16)     17052.6  Rx     08508A00  1  10 
    17)     17447.7  Rx     08508A00  1  10 
    18)     17448.0  Rx     08508A00  1  10 
    19)     17448.4  Rx     08508A00  1  10 
    20)     17448.7  Rx     08508A00  1  10 
    21)     17449.8  Rx     08508A00  1  10 
    22)     17450.2  Rx     08508A00  1  10 
    23)     17450.5  Rx     08508A00  1  10 
    24)     17451.8  Rx     08508A00  1  10 
    25)     17452.1  Rx     08508A00  1  10 
    26)     17452.4  Rx     08508A00  1  10 
    27)     17452.7  Rx     08508A00  1  10 
    28)     17453.8  Rx     08508A00  1  10 
    29)     17454.1  Rx     08508A00  1  10 
    30)     17454.4  Rx     08508A00  1  10 
    31)     17454.7  Rx     08508A00  1  10 
    32)     17455.8  Rx     08508A00  1  10 
    33)     17456.2  Rx     08508A00  1  00 
    34)     17456.4  Rx     08508A00  1  00 
    35)     17456.8  Rx     08508A00  1  00 
    36)     17457.1  Rx     08508A00  1  00 
    37)     17521.1  Rx     08508A00  1  00 
    38)     17521.4  Rx     08508A00  1  00 
    39)     17522.0  Rx     14320101  8  00 40 7F FF FF FF FF FF 
    40)     17671.1  Rx     08508A00  1  00 
    41)     17671.4  Rx     08508A00  1  00 
    42)     17700.9  Rx     08508A00  1  00 
    43)     17701.2  Rx     08508A00  1  00 
    44)     17701.5  Rx     08508A00  1  00 
    45)     17701.8  Rx     08508A00  1  00 
    46)     17702.2  Rx     08508A00  1  00 
    47)     17702.5  Rx     08508A00  1  00 
    48)     17702.8  Rx     08508A00  1  00 
    49)     17703.1  Rx     08508A00  1  00 
    50)     17703.4  Rx     08508A00  1  00 
    51)     17703.7  Rx     08508A00  1  00 
    52)     17705.2  Rx     08508A00  1  00 
    53)     17705.5  Rx     08508A00  1  00 
    54)     17705.8  Rx     08508A00  1  00 
    55)     17706.1  Rx     08508A00  1  00 
    56)     17706.4  Rx     08508A00  1  00 
    57)     17706.8  Rx     08508A00  1  00 
    58)     17707.1  Rx     08508A00  1  00 
    59)     17707.4  Rx     08508A00  1  00 
    60)     17707.7  Rx     08508A00  1  00 
    61)     17708.1  Rx     08508A00  1  00 
    62)     17708.4  Rx     08508A00  1  00 
    63)     17708.7  Rx     08508A00  1  00 
    64)     17771.0  Rx     08508A00  1  00 
    65)     17772.4  Rx     08508A00  1  00 
    66)     17772.7  Rx     08508A00  1  00 
    67)     17773.2  Rx     14320101  8  00 40 7F FF FF FF FF FF 
    68)     17773.8  Rx     14320101  8  00 40 7F FF FF FF FF FF 
    69)     17774.4  Rx     14320101  8  00 40 7F FF FF FF FF FF 
    70)     17922.2  Rx     08508A00  1  00 
    71)     17922.6  Rx     08508A00  1  00 
    72)     17950.3  Rx     08508A00  1  00 
    73)     17950.6  Rx     08508A00  1  00 
    74)     18044.0  Rx     00102000  0  
    75)     19041.1  Rx     1C105000  0  
    76)     19985.3  Rx     08508A00  1  00 
    77)     20040.6  Rx     1C105000  0  
    78)     21016.1  Rx     14320101  8  00 40 12 C3 00 14 00 00 
    79)     21016.7  Rx     14320501  8  15 4A 00 00 00 00 0B 02 
    80)     21017.2  Rx     14320601  8  12 5C 16 44 12 5C 16 44 
    81)     21040.2  Rx     1C105000  0  
    82)     22015.4  Rx     14320101  8  00 40 12 C3 00 14 00 00 
    83)     22016.0  Rx     14320501  8  15 4A 00 00 00 00 0B 02 
    84)     22016.6  Rx     14321001  8  00 00 00 00 00 02 00 00 
    85)     22016.9  Rx     08508A00  1  00 
    86)     22017.5  Rx     14320601  8  12 5C 16 44 12 5C 16 44 
    87)     22039.7  Rx     1C105000  0  
    88)     23015.3  Rx     14320101  8  00 40 12 C3 00 14 00 00 
    89)     23015.9  Rx     14320501  8  15 4A 00 00 00 00 0B 02 
    90)     23016.4  Rx     14321001  8  00 00 00 00 00 04 00 00 
    91)     23016.8  Rx     08508A00  1  00 
    92)     23017.1  Rx     08508A00  1  00 
    93)     23017.7  Rx     14320601  8  12 5C 16 44 12 5C 16 44 
    94)     23039.2  Rx     1C105000  0  
    95)     23039.5  Rx     00102000  0  
    96)     24014.4  Rx     14320101  8  00 40 12 C3 00 14 00 00 
    97)     24014.9  Rx     09508A00  6  52 CB 42 3C 0B 72 
    98)     24015.5  Rx     14320601  8  12 5C 16 44 12 5C 16 44 
    99)     24016.0  Rx     14321001  8  00 00 00 00 00 06 00 00 
   100)     24016.6  Rx     14320501  8  15 4A 00 00 00 00 0B 02 
   101)     24038.7  Rx     1C105000  0  
   102)     25014.0  Rx     14320101  8  00 40 12 C1 00 14 00 00 
   103)     25014.6  Rx     14320501  8  15 4A 00 55 00 AA 2B 02 
   104)     25015.1  Rx     14321001  8  00 00 00 00 00 08 00 00 
   105)     25015.4  Rx     08508A00  1  00 
   106)     25015.7  Rx     08508A00  1  00 
   107)     25016.3  Rx     14324001  8  00 00 00 57 00 CD 9B BF 
   108)     25016.9  Rx     14320601  8  12 5C 16 44 12 5C 16 44 
   109)     25038.2  Rx     1C105000  0  
   110)     26013.5  Rx     14320101  8  00 40 12 C1 00 14 00 00 
   111)     26013.9  Rx     09508A00  6  52 D3 42 3C 0B 72 
   112)     26014.5  Rx     14320601  8  12 5C 16 44 12 5C 16 44 
   113)     26015.1  Rx     14321001  8  00 00 00 00 00 0A 00 00 
   114)     26015.6  Rx     14320501  8  15 4A 00 55 00 AA 2B 02 
   115)     26037.7  Rx     1C105000  0  
   116)     27013.0  Rx     14320101  8  00 40 12 C3 00 14 00 00 
   117)     27013.6  Rx     14320501  8  15 4A 00 55 00 AA 2B 02 
   118)     27014.2  Rx     14321001  8  00 00 00 00 00 0C 00 00 
   119)     27014.7  Rx     14320601  8  12 5C 16 44 12 5C 16 44 
   120)     27016.4  Rx     08508A00  1  00 
   121)     27037.2  Rx     1C105000  0  
   122)     28012.5  Rx     14320101  8  00 40 12 C3 00 14 00 00 
   123)     28013.0  Rx     09508A00  6  52 DB 42 3C 0B 72 
   124)     28013.5  Rx     14320601  8  12 5C 16 44 12 5C 16 44 
   125)     28013.8  Rx     08F08B00  0  
   126)     28014.4  Rx     14321001  8  00 00 00 00 00 0E 00 00 
   127)     28014.9  Rx     14320501  8  15 4A 00 55 00 AA 2B 02 
   128)     28036.8  Rx     1C105000  0  
   129)     28037.1  Rx     00102000  0  
   130)     29011.9  Rx     14320101  8  00 40 12 C1 00 14 00 00 
   131)     29012.5  Rx     14320501  8  15 4A 00 55 00 AA 2B 02 
   132)     29013.1  Rx     14321001  8  00 00 00 00 00 10 00 00 
   133)     29013.7  Rx     14320601  8  12 5C 16 44 12 5C 16 44 
   134)     29019.7  Rx     08508A00  1  00 
   135)     29036.2  Rx     1C105000  0  
   136)     30012.0  Rx     14320101  8  00 40 12 C3 00 14 00 00 
   137)     30012.4  Rx     09508A00  6  52 E3 42 3C 0B 72 
   138)     30013.0  Rx     14320601  8  12 5C 16 44 12 5C 16 44 
   139)     30013.2  Rx     08708B00  0  
   140)     30013.6  Rx     08508A00  1  00 
   141)     30013.9  Rx     08508A00  1  00 
   142)     30014.5  Rx     14321001  8  00 00 00 00 00 12 00 00 
   143)     30015.0  Rx     14320501  8  15 4A 00 55 00 AA 2B 02 
   144)     30035.7  Rx     1C105000  0  
   145)     30140.7  Rx     1A001000  0  
   146)     30240.6  Rx     1A102000  0  
   147)     30241.0  Rx     0200DBFB  0  
   148)     30340.5  Rx     1A102100  0  
   149)     30341.0  Rx     02010200  0  
   150)     30440.5  Rx     1A102200  0  
   151)     30441.0  Rx     020203A0  0  
   152)     30540.4  Rx     1A102300  0  
   153)     30540.9  Rx     020300DC  0  
   154)     30640.4  Rx     1A103000  0  
   155)     30640.8  Rx     1B4031FF  0  
   156)     30641.2  Rx     1B503201  0  
   157)     30660.4  Rx     1A102000  0  
   158)     30760.5  Rx     19502001  2  59 D2 
   159)     30761.3  Rx     19402101  2  DA AA 
   160)     30761.7  Rx     19503001  0  
   161)     30762.3  Rx     19403101  0  
   162)     30763.3  Rx     19544001  8  00 20 00 01 0B B8 01 2C 
   163)     30857.2  Rx     194C4001  0  
   164)     30857.9  Rx     19584001  8  00 01 54 E6 41 DB 08 02 
   165)     30955.3  Rx     194C4001  0  
   166)     30955.9  Rx     19584001  8  54 E6 41 DB 08 02 00 00 
   167)     31010.9  Rx     14320101  8  00 40 12 C3 00 6F 00 00 
   168)     31011.5  Rx     14320501  8  15 4A 00 55 00 AA 2B 02 
   169)     31012.1  Rx     14321001  8  00 00 00 00 00 1D 00 00 
   170)     31012.6  Rx     14320601  8  12 5C 16 44 12 5C 16 44 
   171)     31035.2  Rx     1C105000  0  
   172)     31035.5  Rx     1D504001  2  59 D2 
   173)     31038.4  Rx     1D404101  2  23 01 
   174)     31050.6  Rx     194C4001  0  
   175)     31051.2  Rx     195C4001  8  17 70 83 20 83 84 57 3E 
   176)     31145.0  Rx     194C4001  0  
   177)     31145.6  Rx     19502001  2  59 D2 
   178)     31146.4  Rx     19402101  2  DA AA 
   179)     31850.4  Rx     1A001000  0  
   180)     31949.7  Rx     1A102000  0  
   181)     31950.5  Rx     0200DBFB  0  
   182)     32010.5  Rx     14320101  8  00 40 12 C1 00 12 00 00 
   183)     32010.9  Rx     09508A00  6  52 EC 42 3C 0B 72 
   184)     32011.5  Rx     14320601  8  12 5C 16 44 12 5C 16 44 
   185)     32012.1  Rx     14321001  8  00 00 00 00 00 1E 00 00 
   186)     32012.6  Rx     14320501  8  15 4A 00 55 00 AA 2B 02 
   187)     32018.3  Rx     08508A00  1  00 
   188)     32034.7  Rx     1C105000  0  
   189)     32035.1  Rx     19502001  2  59 D2 
   190)     32035.4  Rx     1D504001  2  59 D2 
   191)     32049.7  Rx     1A102100  0  
   192)     32050.5  Rx     02010200  0  
   193)     32149.6  Rx     1A102200  0  
   194)     32150.5  Rx     020203A0  0  
   195)     32249.6  Rx     1A102300  0  
   196)     32250.5  Rx     020300DC  0  
   197)     32349.5  Rx     1A103000  0  
   198)     32350.4  Rx     1B4031FF  0  
   199)     32350.8  Rx     1B503201  0  
   200)     32369.5  Rx     1A102000  0  
   201)     32469.7  Rx     19502001  2  59 D2 
   202)     32470.8  Rx     19402101  2  DA AA 
   203)     32471.1  Rx     19503001  0  
   204)     32471.8  Rx     19403101  0  
   205)     32472.8  Rx     19544001  8  00 20 00 01 0B B8 01 2C 
   206)     32567.1  Rx     194C4001  0  
   207)     32567.7  Rx     19584001  8  00 01 54 E6 41 DB 08 02 
   208)     32665.2  Rx     194C4001  0  
   209)     32665.9  Rx     19584001  8  54 E6 41 DB 08 02 00 00 
   210)     32756.5  Rx     194C4001  0  
   211)     32757.2  Rx     195C4001  8  17 70 83 20 83 84 57 3E 
   212)     32850.8  Rx     194C4001  0  
   213)     32851.4  Rx     19502001  2  59 D2 
   214)     32852.2  Rx     19402101  2  DA AA 
   215)     33010.0  Rx     14320101  8  00 40 12 C1 00 12 00 00 
   216)     33010.6  Rx     14320501  8  15 4A 00 55 00 AA 2B 02 
   217)     33011.2  Rx     14321001  8  00 00 00 00 00 1F 00 00 
   218)     33011.7  Rx     14320601  8  12 5C 16 44 12 5C 16 44 
   219)     33034.3  Rx     1C105000  0  
   220)     33034.6  Rx     1D504001  2  59 D2 
   221)     33570.4  Rx     1A001000  0  
   222)     33669.1  Rx     1A102000  0  
   223)     33670.6  Rx     0200DBFB  0  
   224)     33769.1  Rx     1A102100  0  
   225)     33770.5  Rx     02010200  0  
   226)     33869.0  Rx     1A102200  0  
   227)     33870.5  Rx     020203A0  0  
   228)     33968.9  Rx     1A102300  0  
   229)     33970.5  Rx     020300DC  0  
   230)     34009.8  Rx     14320101  8  00 40 12 C1 FF F5 00 0B 
   231)     34010.2  Rx     09508A00  6  52 FC 42 3C 0B 72 
   232)     34010.8  Rx     14320601  8  12 5C 16 44 12 5C 16 44 
   233)     34011.3  Rx     14321001  8  00 01 00 00 00 1E 00 00 
   234)     34011.9  Rx     14320501  8  15 4A 00 55 00 AA 2B 02 
   235)     34025.8  Rx     08508A00  1  00 
   236)     34033.9  Rx     1C105000  0  
   237)     34034.2  Rx     1D504001  2  59 D2 
   238)     34068.9  Rx     1A103000  0  
   239)     34070.4  Rx     1B4031FF  0  
   240)     34070.8  Rx     1B503201  0  
   241)     34088.8  Rx     1A102000  0  
   242)     34189.1  Rx     19502001  2  59 D2 
   243)     34190.8  Rx     19402101  2  DA AA 
   244)     34191.2  Rx     19503001  0  
   245)     34191.9  Rx     19403101  0  
   246)     34192.8  Rx     19544001  8  00 20 00 01 0B B8 01 2C 
   247)     34286.9  Rx     194C4001  0  
   248)     34287.6  Rx     19584001  8  00 01 54 E6 41 DB 08 02 
   249)     34380.7  Rx     194C4001  0  
   250)     34381.4  Rx     19584001  8  54 E6 41 DB 08 02 00 00 
   251)     34478.8  Rx     194C4001  0  
   252)     34479.5  Rx     195C4001  8  17 70 83 20 83 84 57 3E 
   253)     34576.9  Rx     194C4001  0  
   254)     34577.4  Rx     19502001  2  59 D2 
   255)     34581.7  Rx     19402101  2  DA AA 
   256)     35009.5  Rx     14320101  8  00 40 12 C1 00 12 00 00 
   257)     35010.0  Rx     14320501  8  15 4A 00 55 00 AA 2B 02 
   258)     35010.6  Rx     14321001  8  00 00 00 00 00 1F 00 00 
   259)     35011.2  Rx     14320601  8  12 5C 16 44 12 5C 16 44 
   260)     35033.7  Rx     1C105000  0  
   261)     35034.0  Rx     1D504001  2  59 D2 
   262)     36009.3  Rx     14320101  8  00 40 12 C1 00 03 00 00 
   263)     36009.8  Rx     09508A00  6  53 06 42 3C 0B 72 
   264)     36010.3  Rx     14320601  8  12 5C 16 44 12 5C 16 44 
   265)     36010.9  Rx     14321001  8  00 00 00 00 00 1F 00 00 
   266)     36011.4  Rx     14320501  8  15 4A 00 55 00 AA 2B 02 
   267)     36033.5  Rx     1C105000  0  
   268)     36033.9  Rx     1D504001  2  59 D2 
   269)     36035.6  Rx     08508A00  1  00 
   270)     37009.1  Rx     14320101  8  00 40 12 C3 00 10 00 00 
   271)     37009.6  Rx     14320501  8  15 4A 00 55 00 AA 2B 02 
   272)     37010.2  Rx     14321001  8  00 00 00 00 00 20 00 00 
   273)     37010.8  Rx     14320601  8  12 5C 16 44 12 5C 16 44 
   274)     37033.3  Rx     1C105000  0  
   275)     37033.7  Rx     1D504001  2  59 D2 
   276)     37053.3  Rx     01503001  0  
   277)     38008.6  Rx     14320101  8  00 40 12 C1 00 01 00 00 
   278)     38009.1  Rx     09508A00  6  53 10 42 3C 0B 72 
   279)     38009.6  Rx     14320601  8  12 5C 16 44 12 5C 16 44 
   280)     38009.9  Rx     08F08B00  0  
   281)     38010.5  Rx     14321001  8  00 00 00 00 00 20 00 00 
   282)     38011.1  Rx     14320501  8  15 4A 00 55 00 AA 2B 02 
   283)     38032.8  Rx     1C105000  0  
   284)     38040.3  Rx     08508A00  1  00 
   285)     39008.1  Rx     14320101  8  00 40 12 C1 00 17 00 00 
   286)     39008.6  Rx     14320501  8  15 4A 00 55 00 AA 2B 02 
   287)     39009.2  Rx     14321001  8  00 00 00 00 00 22 00 00 
   288)     39009.8  Rx     14320601  8  12 5C 16 44 12 5C 16 44 
   289)     39032.3  Rx     1C105000  0  
   290)     40007.7  Rx     14320101  8  00 40 12 C3 00 12 00 00 
   291)     40008.1  Rx     09508A00  6  53 19 42 3C 0B 72 
   292)     40008.7  Rx     14320601  8  12 5C 16 44 12 5C 16 44 
   293)     40008.9  Rx     08708B00  0  
   294)     40009.5  Rx     14321001  8  00 00 00 00 00 23 00 00 
   295)     40010.1  Rx     14320501  8  15 4A 00 55 00 AA 2B 02 
   296)     40031.9  Rx     1C105000  0  
   297)     40048.4  Rx     08508A00  1  00 
   298)     41007.2  Rx     14320101  8  00 40 12 C1 00 12 00 00 
   299)     41007.7  Rx     14320501  8  15 4A 00 55 00 AA 2B 02 
   300)     41008.3  Rx     14321001  8  00 00 00 00 00 24 00 00 
   301)     41008.9  Rx     14320601  8  12 5C 16 44 12 5C 16 44 
   302)     41031.4  Rx     1C105000  0  
   303)     42006.9  Rx     14320101  8  00 40 12 C1 00 71 00 00 
   304)     42007.4  Rx     09508A00  6  53 18 42 3C 0B 72 
   305)     42007.9  Rx     14320601  8  12 5C 16 44 12 5C 16 44 
   306)     42008.5  Rx     14321001  8  00 00 00 00 00 2F 00 00 
   307)     42009.1  Rx     14320501  8  15 4A 00 55 00 AA 2B 02 
   308)     42031.1  Rx     1C105000  0  
   309)     42057.6  Rx     08508A00  1  00 
   310)     43006.5  Rx     14320101  8  00 40 12 C1 FF D8 00 28 
   311)     43007.0  Rx     14320501  8  15 4A 00 55 00 AA 2B 02 
   312)     43007.6  Rx     14321001  8  00 04 00 00 00 2B 00 00 
   313)     43008.2  Rx     14320601  8  12 5C 16 44 12 5C 16 44 
   314)     43030.7  Rx     1C105000  0  
   315)     44006.0  Rx     14320101  8  00 40 12 C1 FF F1 00 0F 
   316)     44006.5  Rx     09508A00  6  53 28 42 3C 0B 72 
   317)     44007.1  Rx     14320601  8  12 5C 16 44 12 5C 16 44 
   318)     44007.6  Rx     14321001  8  00 05 00 00 00 2A 00 00 
   319)     44008.2  Rx     14320501  8  15 4A 00 55 00 AA 2B 02 
   320)     44030.3  Rx     1C105000  0  
   321)     44066.8  Rx     08508A00  1  00 
   322)     45005.5  Rx     14320101  8  00 40 12 C1 00 10 00 00 
   323)     45006.1  Rx     14320501  8  15 4A 00 55 00 AA 2B 02 
   324)     45006.7  Rx     14321001  8  00 04 00 00 00 2B 00 00 
   325)     45007.3  Rx     14320601  8  12 5C 16 44 12 5C 16 44 
   326)     45029.8  Rx     1C105000  0  
   327)     46005.1  Rx     14320101  8  00 40 12 C1 00 10 00 00 
   328)     46005.5  Rx     09508A00  6  53 31 42 3C 0B 72 
   329)     46006.1  Rx     14320601  8  12 5C 16 44 12 5C 16 44 
   330)     46006.7  Rx     14321001  8  00 03 00 00 00 2C 00 00 
   331)     46007.2  Rx     14320501  8  15 4A 00 55 00 AA 2B 02 
   332)     46029.3  Rx     1C105000  0  
   333)     46075.9  Rx     08508A00  1  00 
   334)     47004.6  Rx     14320101  8  00 40 12 C1 00 10 00 00 
   335)     47005.2  Rx     14320501  8  15 4A 00 55 00 AA 2B 02 
   336)     47005.7  Rx     14321001  8  00 02 00 00 00 2D 00 00 
   337)     47006.3  Rx     14320601  8  12 5C 16 44 12 5C 16 44 
   338)     47028.8  Rx     1C105000  0  
   339)     48004.1  Rx     14320101  8  00 40 12 C1 00 3A 00 00 
   340)     48004.5  Rx     09508A00  6  53 35 42 3C 0B 72 
   341)     48005.1  Rx     14320601  8  12 5C 16 44 12 5C 16 44 
   342)     48005.4  Rx     08F08B00  0  
   343)     48006.0  Rx     14321001  8  00 00 00 00 00 32 00 00 
   344)     48006.5  Rx     14320501  8  15 4A 00 55 00 AA 2B 02 
   345)     48028.3  Rx     1C105000  0  
   346)     48080.6  Rx     08508A00  1  00 
   347)     49003.5  Rx     14320101  8  00 40 12 C1 FF 8B 00 75 
   348)     49004.1  Rx     14320501  8  15 4A 00 55 00 AA 2B 02 
   349)     49004.7  Rx     14321001  8  00 0B 00 00 00 27 00 00 
   350)     49005.2  Rx     14320601  8  12 5C 16 44 12 5C 16 44 
   351)     49027.8  Rx     1C105000  0  
   352)     50003.0  Rx     14320101  8  00 40 12 C1 FF C9 00 37 
   353)     50003.5  Rx     09508A00  6  53 45 42 3C 0B 72 
   354)     50004.0  Rx     14320601  8  12 5C 16 44 12 5C 16 44 
   355)     50004.3  Rx     08708B00  0  
   356)     50004.9  Rx     14321001  8  00 10 00 00 00 22 00 00 
   357)     50005.5  Rx     14320501  8  15 4A 00 55 00 AA 2B 02 
   358)     50027.3  Rx     1C105000  0  
   359)     50088.9  Rx     08508A00  1  00 
   360)     51002.5  Rx     14320101  8  00 40 12 C1 00 12 00 00 
   361)     51003.1  Rx     14320501  8  15 4A 00 55 00 AA 2B 02 
   362)     51003.7  Rx     14321001  8  00 0F 00 00 00 23 00 00 
   363)     51004.2  Rx     14320601  8  12 5C 16 44 12 5C 16 44 
   364)     51026.8  Rx     1C105000  0  
   365)     52002.0  Rx     14320101  8  00 40 12 C1 00 12 00 00 
   366)     52002.5  Rx     09508A00  6  53 4E 42 3C 0B 72 
   367)     52003.1  Rx     14320601  8  12 5C 16 44 12 5C 16 44 
   368)     52003.6  Rx     14321001  8  00 0E 00 00 00 24 00 00 
   369)     52004.2  Rx     14320501  8  15 4A 00 55 00 AA 2B 03 
   370)     52026.3  Rx     1C105000  0  
   371)     52097.8  Rx     08508A00  1  00 
   372)     53001.5  Rx     14320101  8  00 40 12 C1 00 3E 00 00 
   373)     53002.0  Rx     14320501  8  15 4A 00 55 00 AA 2B 03 
   374)     53002.6  Rx     14321001  8  00 08 00 00 00 2A 00 00 
   375)     53003.2  Rx     14320601  8  12 5C 16 44 12 5C 16 44 
   376)     53025.7  Rx     1C105000  0  
   377)     54001.0  Rx     14320101  8  00 40 12 C1 00 0A 00 00 
   378)     54001.5  Rx     09508A00  6  53 57 42 3C 0B 72 
   379)     54002.1  Rx     14320601  8  12 5C 16 44 12 5C 16 44 
   380)     54002.7  Rx     14321001  8  00 07 00 00 00 2B 00 00 
   381)     54003.2  Rx     14320501  8  15 4A 00 55 00 AA 2B 03 
   382)     54025.3  Rx     1C105000  0  
   383)     54100.5  Rx     08508A00  1  00 
   384)     54360.2  Rx     08508A00  1  00 
   385)     55000.7  Rx     14320101  8  00 40 12 C1 00 31 00 00 
   386)     55001.2  Rx     14320501  8  15 4A 00 55 00 AA 2B 03 
   387)     55001.8  Rx     14321001  8  00 03 00 00 00 2F 00 00 
   388)     55002.3  Rx     14320601  8  12 5C 16 44 12 5C 16 44 
   389)     55025.2  Rx     1C105000  0  
   390)     56000.3  Rx     14320101  8  00 40 12 C1 00 00 00 00 
   391)     56000.8  Rx     09508A00  6  53 67 42 3C 0B 72 
   392)     56001.3  Rx     14320601  8  12 5C 16 44 12 5C 16 44 
   393)     56001.9  Rx     14321001  8  00 03 00 00 00 2F 00 00 
   394)     56002.5  Rx     14320501  8  15 4A 00 55 00 AA 2B 03 
   395)     56024.6  Rx     1C105000  0  
   396)     56359.7  Rx     08508A00  1  00 
   397)     56999.9  Rx     14320101  8  00 40 12 C1 FF F9 00 07 
   398)     57000.5  Rx     14320501  8  15 4A 00 55 00 AA 2B 03 
   399)     57001.1  Rx     14321001  8  00 03 00 00 00 2F 00 00 
   400)     57001.6  Rx     14320601  8  12 5C 16 44 12 5C 16 44 
   401)     57024.2  Rx     1C105000  0  
   402)     57999.6  Rx     14320101  8  00 40 12 C1 00 12 00 00 
   403)     58000.1  Rx     09508A00  6  53 70 42 3C 0B 72 
   404)     58000.6  Rx     14320601  8  12 5C 16 44 12 5C 16 44 
   405)     58000.9  Rx     08F08B00  0  
   406)     58001.5  Rx     14321001  8  00 02 00 00 00 30 00 00 
   407)     58002.1  Rx     14320501  8  15 4A 00 55 00 AA 2B 03 
   408)     58023.9  Rx     1C105000  0  
   409)     58058.6  Rx     08508A00  1  00 
   410)     58999.2  Rx     14320101  8  00 40 12 C1 00 12 00 00 
   411)     58999.8  Rx     14320501  8  15 4A 00 55 00 AA 2B 03 
   412)     59000.3  Rx     14321001  8  00 01 00 00 00 31 00 00 
   413)     59000.9  Rx     14320601  8  12 5C 16 44 12 5C 16 44 
   414)     59023.5  Rx     1C105000  0  
   415)     59462.0  Rx     08508A00  1  00 
   416)     59998.9  Rx     14320101  8  00 40 12 C1 00 12 00 00 
   417)     59999.4  Rx     14320601  8  12 5C 16 44 12 5C 16 44 
   418)     60000.0  Rx     14321001  8  00 00 00 00 00 32 00 00 
   419)     60000.3  Rx     08708B00  0  
   420)     60000.7  Rx     09508A00  6  53 79 42 3C 0B 72 
   421)     60001.3  Rx     14320501  8  15 4A 00 55 00 AA 2B 03 
   422)     60023.1  Rx     1C105000  0  
   423)     60998.5  Rx     14320101  8  00 40 12 C1 00 12 00 00 
   424)     60999.0  Rx     14320501  8  15 4A 00 55 00 AA 2B 03 
   425)     60999.6  Rx     14321001  8  00 00 00 00 00 33 00 00 
   426)     61000.2  Rx     14320601  8  12 5C 16 44 12 5C 16 44 
   427)     61022.7  Rx     1C105000  0  
   428)     61459.8  Rx     08508A00  1  00 
   429)     61998.1  Rx     14320101  8  00 40 12 C1 00 12 00 00 
   430)     61998.6  Rx     09508A00  6  53 82 42 3C 0B 72 
   431)     61999.1  Rx     14320601  8  12 5C 16 44 12 5C 16 44 
   432)     61999.7  Rx     14321001  8  00 00 00 00 00 34 00 00 
   433)     62000.3  Rx     14320501  8  15 4A 00 55 00 AA 2B 03 
   434)     62022.3  Rx     1C105000  0  
   435)     62324.5  Rx     08508A00  1  00 
   436)     62997.7  Rx     14320101  8  00 40 12 C1 FF CF 00 31 
   437)     62998.3  Rx     14320501  8  15 4A 00 55 00 AA 2B 03 
   438)     62998.8  Rx     14321001  8  00 04 00 00 00 30 00 00 
   439)     62999.4  Rx     14320601  8  12 5C 16 44 12 5C 16 44 
   440)     63022.0  Rx     1C105000  0  
   441)     63456.5  Rx     08508A00  1  00 
   442)     63997.4  Rx     14320101  8  00 40 12 C1 00 14 00 00 
   443)     63997.8  Rx     09508A00  6  53 89 42 3C 0B 72 
   444)     63998.4  Rx     14320601  8  12 5C 16 44 12 5C 16 44 
   445)     63999.0  Rx     14321001  8  00 02 00 00 00 32 00 00 
   446)     63999.6  Rx     14320501  8  15 4A 00 55 00 AA 2B 03 
   447)     64021.6  Rx     1C105000  0  
   448)     64256.3  Rx     08508A00  1  00 
   449)     64856.0  Rx     08508A00  1  00 
   450)     64997.1  Rx     14320101  8  00 40 12 C1 00 14 00 00 
   451)     64997.7  Rx     14320501  8  15 4A 00 55 00 AA 2B 03 
   452)     64998.2  Rx     14321001  8  00 00 00 00 00 34 00 00 
   453)     64998.8  Rx     14320601  8  12 5C 16 44 12 5C 16 44 
   454)     65021.3  Rx     1C105000  0  
   455)     65456.2  Rx     08508A00  1  00 
   456)     65996.8  Rx     14320101  8  00 40 12 C1 FF CD 00 33 
   457)     65997.3  Rx     09508A00  6  53 89 42 3C 0B 72 
   458)     65997.8  Rx     14320601  8  12 5C 16 44 12 5C 16 44 
   459)     65998.4  Rx     14321001  8  00 05 00 00 00 2F 00 00 
   460)     65999.0  Rx     14320501  8  15 4A 00 55 00 AA 2B 03 
   461)     66021.1  Rx     1C105000  0  
   462)     66745.0  Rx     08508A00  1  00 
   463)     66996.5  Rx     14320101  8  00 40 12 C1 FF CD 00 33 
   464)     66997.1  Rx     14320501  8  15 4A 00 55 00 AA 2B 03 
   465)     66997.7  Rx     14321001  8  00 0A 00 00 00 2A 00 00 
   466)     66998.2  Rx     14320601  8  12 5C 16 44 12 5C 16 44 
   467)     67020.7  Rx     1C105000  0  
   468)     67996.1  Rx     14320101  8  00 40 12 C1 00 12 00 00 
   469)     67996.6  Rx     09508A00  6  53 89 42 3C 0B 72 
   470)     67997.2  Rx     14320601  8  12 5C 16 44 12 5C 16 44 
   471)     67997.5  Rx     08F08B00  0  
   472)     67998.0  Rx     14321001  8  00 09 00 00 00 2B 00 00 
   473)     67998.6  Rx     14320501  8  15 4A 00 55 00 AA 2B 03 
   474)     68020.4  Rx     1C105000  0  
   475)     68740.3  Rx     08508A00  1  00 
   476)     68955.0  Rx     08508A00  1  00 
   477)     68995.7  Rx     14320101  8  00 40 12 C1 00 12 00 00 
   478)     68996.3  Rx     14320501  8  15 4A 00 55 00 AA 2B 03 
   479)     68996.9  Rx     14321001  8  00 08 00 00 00 2C 00 00 
   480)     68997.4  Rx     14320601  8  12 5C 16 44 12 5C 16 44 
   481)     69020.0  Rx     1C105000  0  
   482)     69754.7  Rx     08508A00  1  00 
   483)     69995.4  Rx     14320101  8  00 40 12 C1 00 12 00 00 
   484)     69995.9  Rx     09508A00  6  53 89 42 3C 0B 72 
   485)     69996.5  Rx     14320601  8  12 5C 16 44 12 5C 16 44 
   486)     69996.7  Rx     08708B00  0  
   487)     69997.3  Rx     14321001  8  00 07 00 00 00 2D 00 00 
   488)     69997.9  Rx     14320501  8  15 4A 00 55 00 AA 2B 03 
   489)     70019.7  Rx     1C105000  0  
   490)     70648.6  Rx     08508A00  1  00 
   491)     70995.3  Rx     14320101  8  00 40 12 C1 00 12 00 00 
   492)     70995.8  Rx     14320501  8  15 4A 00 55 00 AA 2B 03 
   493)     70996.4  Rx     14321001  8  00 06 00 00 00 2E 00 00 
   494)     70997.0  Rx     14320601  8  12 5C 16 44 12 5C 16 44 
   495)     71019.5  Rx     1C105000  0  
   496)     71654.4  Rx     08508A00  1  00 
   497)     71995.1  Rx     14320101  8  00 40 12 C1 00 12 00 00 
   498)     71995.6  Rx     09508A00  6  53 89 42 3C 0B 72 
   499)     71996.1  Rx     14320601  8  12 5C 16 44 12 5C 16 44 
   500)     71996.7  Rx     14321001  8  00 05 00 00 00 2F 00 00 
   501)     71997.2  Rx     14320501  8  15 4A 00 55 00 AA 2B 03 
   502)     72019.4  Rx     1C105000  0  
   503)     72754.2  Rx     08508A00  1  00 
   504)     72995.0  Rx     14320101  8  00 40 12 C1 00 12 00 00 
   505)     72995.5  Rx     14320501  8  15 4A 00 55 00 AA 2B 03 
   506)     72996.1  Rx     14321001  8  00 04 00 00 00 30 00 00 
   507)     72996.7  Rx     14320601  8  12 5C 16 44 12 5C 16 44 
   508)     73019.2  Rx     1C105000  0  
   509)     73443.1  Rx     08508A00  1  00 
   510)     73994.7  Rx     14320101  8  00 40 12 C1 FF CD 00 33 
   511)     73995.2  Rx     09508A00  6  53 89 42 3C 0B 72 
   512)     73995.8  Rx     14320601  8  12 5C 16 44 12 5C 16 44 
   513)     73996.4  Rx     14321001  8  00 09 00 00 00 2B 00 00 
   514)     73996.9  Rx     14320501  8  15 4A 00 55 00 AA 2B 03 
   515)     74019.0  Rx     1C105000  0  
   516)     74994.5  Rx     14320101  8  00 40 12 C1 FF AA 00 56 
   517)     74995.1  Rx     14320501  8  15 4A 00 55 00 AA 2B 03 
   518)     74995.6  Rx     14321001  8  00 11 00 00 00 23 00 00 
   519)     74996.2  Rx     14320601  8  12 5C 16 44 12 5C 16 44 
   520)     75018.8  Rx     1C105000  0  
   521)     75438.9  Rx     08508A00  1  00 
   522)     75994.3  Rx     14320101  8  00 40 12 C1 00 99 00 00 
   523)     75994.8  Rx     09508A00  6  53 78 42 3C 0B 72 
   524)     75995.3  Rx     14320601  8  12 5C 16 44 12 5C 16 44 
   525)     75995.9  Rx     14321001  8  00 02 00 00 00 32 00 00 
   526)     75996.4  Rx     14320501  8  15 4A 00 55 00 AA 2B 03 
   527)     76018.5  Rx     1C105000  0  
   528)     76994.1  Rx     14320101  8  00 40 12 C1 00 05 00 00 
   529)     76994.6  Rx     14320501  8  15 4A 00 55 00 AA 2B 03 
   530)     76995.2  Rx     14321001  8  00 02 00 00 00 32 00 00 
   531)     76995.7  Rx     14320601  8  12 5C 16 44 12 5C 16 44 
   532)     77018.3  Rx     1C105000  0  
   533)     77438.5  Rx     08508A00  1  00 
   534)     77993.8  Rx     14320101  8  00 40 12 C1 FF FE 00 02 
   535)     77994.3  Rx     09508A00  6  53 88 42 3C 0B 72 
   536)     77994.9  Rx     14320601  8  12 5C 16 44 12 5C 16 44 
   537)     77995.2  Rx     08F08B00  0  
   538)     77995.8  Rx     14321001  8  00 02 00 00 00 32 00 00 
   539)     77996.3  Rx     14320501  8  15 4A 00 55 00 AA 2B 03 
   540)     78018.1  Rx     1C105000  0  
   541)     78993.6  Rx     14320101  8  00 40 12 C1 FF C0 00 40 
   542)     78994.2  Rx     14320501  8  15 4A 00 55 00 AA 2B 03 
   543)     78994.8  Rx     14321001  8  00 08 00 00 00 2C 00 00 
   544)     78995.4  Rx     14320601  8  12 5C 16 44 12 5C 16 44 
   545)     79017.9  Rx     1C105000  0  
   546)     79438.1  Rx     08508A00  1  00 
   547)     79993.5  Rx     14320101  8  00 40 12 C3 00 14 00 00 
   548)     79993.9  Rx     09508A00  6  53 8B 42 3C 0B 72 
   549)     79994.5  Rx     14320601  8  12 5C 16 44 12 5C 16 44 
   550)     79994.7  Rx     08708B00  0  
   551)     79995.3  Rx     14321001  8  00 06 00 00 00 2E 00 00 
   552)     79995.9  Rx     14320501  8  15 4A 00 55 00 AA 2B 03 
   553)     80017.7  Rx     1C105000  0  
   554)     80993.3  Rx     14320101  8  00 40 12 C1 00 14 00 00 
   555)     80993.8  Rx     14320501  8  15 4A 00 55 00 AA 2B 03 
   556)     80994.4  Rx     14321001  8  00 04 00 00 00 30 00 00 
   557)     80994.9  Rx     14320601  8  12 5C 16 44 12 5C 16 44 
   558)     81017.5  Rx     1C105000  0  
   559)     81437.6  Rx     08508A00  1  00 
   560)     81993.0  Rx     14320101  8  00 40 12 C1 00 14 00 00 
   561)     81993.5  Rx     09508A00  6  53 89 42 3C 0B 72 
   562)     81994.0  Rx     14320601  8  12 5C 16 44 12 5C 16 44 
   563)     81994.6  Rx     14321001  8  00 02 00 00 00 32 00 00 
   564)     81995.2  Rx     14320501  8  15 4A 00 55 00 AA 2B 03 
   565)     82017.3  Rx     1C105000  0  
   566)     82992.7  Rx     14320101  8  00 40 12 C3 00 14 00 00 
   567)     82993.3  Rx     14320501  8  15 4A 00 55 00 AA 2B 03 
   568)     82993.9  Rx     14321001  8  00 00 00 00 00 34 00 00 
   569)     82994.5  Rx     14320601  8  12 5C 16 44 12 5C 16 44 
   570)     83017.0  Rx     1C105000  0  
   571)     83437.2  Rx     08508A00  1  00 
   572)     83992.5  Rx     14320101  8  00 40 12 C1 00 05 00 00 
   573)     83992.9  Rx     09508A00  6  53 89 42 3C 0B 72 
   574)     83993.5  Rx     14320601  8  12 5C 16 44 12 5C 16 44 
   575)     83994.1  Rx     14321001  8  00 00 00 00 00 34 00 00 
   576)     83994.6  Rx     14320501  8  15 4A 00 55 00 AA 2B 03 
   577)     84016.8  Rx     1C105000  0  
   578)     84992.2  Rx     14320101  8  00 40 12 C1 FF C9 00 37 
   579)     84992.7  Rx     14320501  8  15 4A 00 55 00 AA 2B 03 
   580)     84993.3  Rx     14321001  8  00 05 00 00 00 2F 00 00 
   581)     84993.9  Rx     14324001  8  00 00 00 0B 00 CD 9B BF 
   582)     84994.5  Rx     14320601  8  12 5C 16 44 12 5C 16 44 
   583)     85016.4  Rx     1C105000  0  
   584)     85436.5  Rx     08508A00  1  00 
   585)     85991.8  Rx     14320101  8  00 40 12 C1 00 22 00 00 
   586)     85992.3  Rx     09508A00  6  53 89 42 3C 0B 72 
   587)     85992.9  Rx     14320601  8  12 5C 16 44 12 5C 16 44 
   588)     85993.5  Rx     14321001  8  00 02 00 00 00 32 00 00 
   589)     85994.0  Rx     14320501  8  15 4A 00 55 00 AA 2B 03 
   590)     86016.1  Rx     1C105000  0  
   591)     86991.5  Rx     14320101  8  00 40 12 C1 00 05 00 00 
   592)     86992.0  Rx     14320501  8  15 4A 00 55 00 AA 2B 03 
   593)     86992.6  Rx     14321001  8  00 02 00 00 00 32 00 00 
   594)     86993.2  Rx     14320601  8  12 5C 16 44 12 5C 16 44 
   595)     87015.7  Rx     1C105000  0  
   596)     87435.8  Rx     08508A00  1  00 
   597)     87991.1  Rx     14320101  8  00 40 12 C1 FF F7 00 09 
   598)     87991.6  Rx     09508A00  6  53 89 42 3C 0B 72 
   599)     87992.2  Rx     14320601  8  12 5C 16 44 12 5C 16 44 
   600)     87992.5  Rx     08F08B00  0  
   601)     87993.1  Rx     14321001  8  00 02 00 00 00 32 00 00 
   602)     87993.6  Rx     14320501  8  15 4A 00 55 00 AA 2B 03 
   603)     88015.4  Rx     1C105000  0  
   604)     88990.9  Rx     14320101  8  00 40 12 C1 FF FC 00 04 
   605)     88991.5  Rx     14320501  8  15 4A 00 55 00 AA 2B 03 
   606)     88992.0  Rx     14321001  8  00 02 00 00 00 32 00 00 
   607)     88992.6  Rx     14320601  8  12 5C 16 44 12 5C 16 44 
   608)     89015.1  Rx     1C105000  0  
   609)     89435.2  Rx     08508A00  1  00 
   610)     89990.6  Rx     14320101  8  00 40 12 C1 FF 98 00 68 
   611)     89991.1  Rx     09508A00  6  53 89 42 3C 0B 72 
   612)     89991.6  Rx     14320601  8  12 5C 16 44 12 5C 16 44 
   613)     89991.9  Rx     08708B00  0  
   614)     89992.5  Rx     14321001  8  00 0C 00 00 00 28 00 00 
   615)     89993.0  Rx     14320501  8  15 4A 00 55 00 AA 2B 03 
   616)     90014.9  Rx     1C105000  0  
   617)     90990.3  Rx     14320101  8  00 40 12 C1 00 12 00 00 
   618)     90990.8  Rx     14320501  8  15 4A 00 55 00 AA 2B 03 
   619)     90991.4  Rx     14321001  8  00 0B 00 00 00 29 00 00 
   620)     90992.0  Rx     14320601  8  12 5C 16 44 12 5C 16 44 
   621)     91014.6  Rx     1C105000  0  
   622)     91434.6  Rx     08508A00  1  00 
   623)     91990.0  Rx     14320101  8  00 40 12 C1 00 12 00 00 
   624)     91990.5  Rx     09508A00  6  53 89 42 3C 0B 72 
   625)     91991.0  Rx     14320601  8  12 5C 16 44 12 5C 16 44 
   626)     91991.6  Rx     14321001  8  00 0A 00 00 00 2A 00 00 
   627)     91992.2  Rx     14320501  8  15 4A 00 55 00 AA 2B 03 
   628)     92014.3  Rx     1C105000  0  
   629)     92989.8  Rx     14320101  8  00 40 12 C1 00 0A 00 00 
   630)     92990.3  Rx     14320501  8  15 4A 00 55 00 AA 2B 03 
   631)     92990.9  Rx     14321001  8  00 09 00 00 00 2B 00 00 
   632)     92991.5  Rx     14320601  8  12 5C 16 44 12 5C 16 44 
   633)     93014.0  Rx     1C105000  0  
   634)     93434.1  Rx     08508A00  1  00 
   635)     93989.5  Rx     14320101  8  00 40 12 C1 00 17 00 00 
   636)     93990.0  Rx     09508A00  6  53 89 42 3C 0B 72 
   637)     93990.5  Rx     14320601  8  12 5C 16 44 12 5C 16 44 
   638)     93991.1  Rx     14321001  8  00 07 00 00 00 2D 00 00 
   639)     93991.6  Rx     14320501  8  15 4A 00 55 00 AA 2B 03 
   640)     94013.7  Rx     1C105000  0  
   641)     94989.1  Rx     14320101  8  00 40 12 C3 00 17 00 00 
   642)     94989.7  Rx     14320501  8  15 4A 00 55 00 AA 2B 03 
   643)     94990.3  Rx     14321001  8  00 05 00 00 00 2F 00 00 
   644)     94990.8  Rx     14320601  8  12 5C 16 44 12 5C 16 44 
   645)     95013.4  Rx     1C105000  0  
   646)     95433.5  Rx     08508A00  1  00 
   647)     95988.9  Rx     14320101  8  00 40 12 C1 00 5B 00 00 
   648)     95989.4  Rx     09508A00  6  53 89 42 3C 0B 72 
   649)     95989.9  Rx     14320601  8  12 5C 16 44 12 5C 16 44 
   650)     95990.5  Rx     14321001  8  00 00 00 00 00 38 00 00 
   651)     95991.0  Rx     14320501  8  15 4A 00 55 00 AA 2B 03 
   652)     96013.1  Rx     1C105000  0  
   653)     96988.7  Rx     14320101  8  00 40 12 C1 FF FB 00 05 
   654)     96989.2  Rx     14320501  8  15 4A 00 55 00 AA 2B 03 
   655)     96989.8  Rx     14321001  8  00 00 00 00 00 38 00 00 
   656)     96990.4  Rx     14320601  8  12 5C 16 44 12 5C 16 44 
   657)     97013.0  Rx     1C105000  0  
   658)     97433.1  Rx     08508A00  1  00 
   659)     97988.5  Rx     14320101  8  00 40 12 C1 FF E3 00 1D 
   660)     97989.0  Rx     09508A00  6  53 89 42 3C 0B 72 
   661)     97989.5  Rx     14320601  8  12 5C 16 44 12 5C 16 44 
   662)     97989.8  Rx     08F08B00  0  
   663)     97990.4  Rx     14321001  8  00 02 00 00 00 36 00 00 
   664)     97990.9  Rx     14320501  8  15 4A 00 55 00 AA 2B 03 
   665)     98012.7  Rx     1C105000  0  
   666)     98988.2  Rx     14320101  8  00 40 12 C3 00 62 00 00 
   667)     98988.8  Rx     14320501  8  15 4A 00 55 00 AA 2B 03 
   668)     98989.4  Rx     14321001  8  00 00 00 00 00 3F 00 00 
   669)     98989.9  Rx     14320601  8  12 5C 16 44 12 5C 16 44 
   670)     99012.5  Rx     1C105000  0  
   671)     99432.6  Rx     08508A00  1  00 
   672)     99987.9  Rx     14320101  8  00 40 12 C1 00 4C 00 00 
   673)     99988.4  Rx     09508A00  6  53 89 42 3C 0B 72 
   674)     99989.0  Rx     14320601  8  12 5C 16 44 12 5C 16 44 
   675)     99989.2  Rx     08708B00  0  
   676)     99989.8  Rx     14321001  8  00 00 00 00 00 46 00 00 
   677)     99990.4  Rx     14320501  8  15 4A 00 55 00 AA 2B 03 
   678)    100012.2  Rx     1C105000  0  
   679)    100987.7  Rx     14320101  8  00 40 12 C3 00 12 00 00 
   680)    100988.3  Rx     14320501  8  15 4A 00 55 00 AA 2B 03 
   681)    100988.8  Rx     14321001  8  00 00 00 00 00 47 00 00 
   682)    100989.4  Rx     14320601  8  12 5C 16 44 12 5C 16 44 
   683)    101011.9  Rx     1C105000  0  
   684)    101432.1  Rx     08508A00  1  00 
   685)    101987.5  Rx     14320101  8  00 40 12 C1 00 12 00 00 
   686)    101987.9  Rx     09508A00  6  53 89 42 3C 0B 72 
   687)    101988.5  Rx     14320601  8  12 5C 16 44 12 5C 16 44 
   688)    101989.1  Rx     14321001  8  00 00 00 00 00 48 00 00 
   689)    101989.6  Rx     14320501  8  15 4A 00 55 00 AA 2B 03 
   690)    102011.7  Rx     1C105000  0  
   691)    102987.3  Rx     14320101  8  00 40 12 C3 FF F5 00 0B 
   692)    102987.9  Rx     14320501  8  15 4A 00 55 00 AA 2B 03 
   693)    102988.5  Rx     14321001  8  00 01 00 00 00 47 00 00 
   694)    102989.0  Rx     14320601  8  12 5C 16 44 12 5C 16 44 
   695)    103011.6  Rx     1C105000  0  
   696)    103431.7  Rx     08508A00  1  00 
   697)    103987.1  Rx     14320101  8  00 40 12 C1 00 12 00 00 
   698)    103987.6  Rx     09508A00  6  53 89 42 3C 0B 72 
   699)    103988.1  Rx     14320601  8  12 5C 16 44 12 5C 16 44 
   700)    103988.7  Rx     14321001  8  00 00 00 00 00 48 00 00 
   701)    103989.3  Rx     14320501  8  15 4A 00 55 00 AA 2B 03 
   702)    104011.3  Rx     1C105000  0  
   703)    104986.9  Rx     14320101  8  00 40 12 C3 00 17 00 00 
   704)    104987.5  Rx     14320501  8  15 4A 00 55 00 AA 2B 03 
   705)    104988.1  Rx     14321001  8  00 00 00 00 00 4A 00 00 
   706)    104988.6  Rx     14320601  8  12 5C 16 44 12 5C 16 44 
   707)    105011.1  Rx     1C105000  0  
   708)    105431.3  Rx     08508A00  1  00 
   709)    105986.8  Rx     14320101  8  00 40 12 C1 00 0C 00 00 
   710)    105987.2  Rx     09508A00  6  53 89 42 3C 0B 72 
   711)    105987.8  Rx     14320601  8  12 5C 16 44 12 5C 16 44 
   712)    105988.4  Rx     14321001  8  00 00 00 00 00 4B 00 00 
   713)    105988.9  Rx     14320501  8  15 4A 00 55 00 AA 2B 03 
   714)    106011.0  Rx     1C105000  0  
   715)    106986.6  Rx     14320101  8  00 40 12 C1 00 14 00 00 
   716)    106987.2  Rx     14320501  8  15 4A 00 55 00 AA 2B 03 
   717)    106987.7  Rx     14321001  8  00 00 00 00 00 4D 00 00 
   718)    106988.3  Rx     14320601  8  12 5C 16 44 12 5C 16 44 
   719)    107010.8  Rx     1C105000  0  
   720)    107431.0  Rx     08508A00  1  00 
   721)    107986.3  Rx     14320101  8  00 40 12 C1 00 14 00 00 
   722)    107986.8  Rx     09508A00  6  53 89 42 3C 0B 72 
   723)    107987.7  Rx     14320601  8  12 5C 16 44 12 5C 16 44 
   724)    107988.0  Rx     08F08B00  0  
   725)    107988.5  Rx     14321001  8  00 00 00 00 00 4F 00 00 
   726)    107989.1  Rx     14320501  8  15 4A 00 55 00 AA 2B 03 
   727)    108010.6  Rx     1C105000  0  
   728)    108986.1  Rx     14320101  8  00 40 12 C1 00 14 00 00 
   729)    108986.6  Rx     14320501  8  15 4A 00 55 00 AA 2B 03 
   730)    108987.2  Rx     14321001  8  00 00 00 00 00 51 00 00 
   731)    108987.8  Rx     14320601  8  12 5C 16 44 12 5C 16 44 
   732)    109010.3  Rx     1C105000  0  
   733)    109430.4  Rx     08508A00  1  00 
   734)    109985.8  Rx     14320101  8  00 40 12 C1 00 14 00 00 
   735)    109986.3  Rx     09508A00  6  53 89 42 3C 0B 72 
   736)    109986.8  Rx     14320601  8  12 5C 16 44 12 5C 16 44 
   737)    109987.1  Rx     08708B00  0  
   738)    109987.7  Rx     14321001  8  00 00 00 00 00 53 00 00 
   739)    109988.3  Rx     14320501  8  15 4A 00 55 00 AA 2B 03 
   740)    110010.0  Rx     1C105000  0  
   741)    110985.5  Rx     14320101  8  00 40 12 C1 00 14 00 00 
   742)    110986.1  Rx     14320501  8  15 4A 00 55 00 AA 2B 03 
   743)    110986.7  Rx     14321001  8  00 00 00 00 00 55 00 00 
   744)    110987.2  Rx     14320601  8  12 5C 16 44 12 5C 16 44 
   745)    111009.8  Rx     1C105000  0  
   746)    111429.9  Rx     08508A00  1  00 
   747)    111985.3  Rx     14320101  8  00 40 12 C1 00 14 00 00 
   748)    111985.7  Rx     09508A00  6  53 89 42 3C 0B 72 
   749)    111986.3  Rx     14320601  8  12 5C 16 44 12 5C 16 44 
   750)    111986.9  Rx     14321001  8  00 00 00 00 00 57 00 00 
   751)    111987.4  Rx     14320501  8  15 4A 00 55 00 AA 2B 03 
   752)    112009.5  Rx     1C105000  0  
   753)    112985.1  Rx     14320101  8  00 40 12 C1 00 14 00 00 
   754)    112985.7  Rx     14320501  8  15 4A 00 55 00 AA 2B 03 
   755)    112986.3  Rx     14321001  8  00 00 00 00 00 59 00 00 
   756)    112986.8  Rx     14320601  8  12 5C 16 44 12 5C 16 44 
   757)    113009.3  Rx     1C105000  0  
   758)    113429.5  Rx     08508A00  1  00 
   759)    113984.9  Rx     14320101  8  00 40 12 C1 00 14 00 00 
   760)    113985.3  Rx     09508A00  6  53 89 42 3C 0B 72 
   761)    113985.9  Rx     14320601  8  12 5C 16 44 12 5C 16 44 
   762)    113986.5  Rx     14321001  8  00 00 00 00 00 5B 00 00 
   763)    113987.1  Rx     14320501  8  15 4A 00 55 00 AA 2B 03 
   764)    114009.1  Rx     1C105000  0  
   765)    114984.6  Rx     14320101  8  00 40 12 C3 00 14 00 00 
   766)    114985.2  Rx     14320501  8  15 4A 00 55 00 AA 2B 03 
   767)    114985.8  Rx     14321001  8  00 00 00 00 00 5D 00 00 
   768)    114986.3  Rx     14320601  8  12 5C 16 44 12 5C 16 44 
   769)    115008.9  Rx     1C105000  0  
   770)    115429.1  Rx     08508A00  1  00 
   771)    115984.5  Rx     14320101  8  00 40 12 C1 00 14 00 00 
   772)    115985.0  Rx     09508A00  6  53 89 42 3C 0B 72 
   773)    115985.5  Rx     14320601  8  12 5C 16 44 12 5C 16 44 
   774)    115986.1  Rx     14321001  8  00 00 00 00 00 5F 00 00 
   775)    115986.7  Rx     14320501  8  15 4A 00 55 00 AA 2B 03 
   776)    116008.7  Rx     1C105000  0  
   777)    116984.2  Rx     14320101  8  00 40 12 C1 00 14 00 00 
   778)    116984.8  Rx     14320501  8  15 4A 00 55 00 AA 2B 03 
   779)    116985.4  Rx     14321001  8  00 00 00 00 00 61 00 00 
   780)    116985.9  Rx     14320601  8  12 5C 16 44 12 5C 16 44 
   781)    117008.5  Rx     1C105000  0  
   782)    117428.6  Rx     08508A00  1  00 
   783)    117984.0  Rx     14320101  8  00 40 12 C1 00 14 00 00 
   784)    117984.5  Rx     09508A00  6  53 89 42 3C 0B 72 
   785)    117985.0  Rx     14320601  8  12 5C 16 44 12 5C 16 44 
   786)    117985.3  Rx     08F08B00  0  
   787)    117985.9  Rx     14321001  8  00 00 00 00 00 63 00 00 
   788)    117986.5  Rx     14320501  8  15 4A 00 55 00 AA 2B 03 
   789)    118008.3  Rx     1C105000  0  
   790)    118983.8  Rx     14320101  8  00 40 12 C1 00 14 00 00 
   791)    118984.3  Rx     14320501  8  15 4A 00 55 00 AA 2B 03 
   792)    118984.9  Rx     14321001  8  00 00 00 00 00 65 00 00 
   793)    118985.5  Rx     14320601  8  12 5C 16 44 12 5C 16 44 
   794)    119008.1  Rx     1C105000  0  
   795)    119428.2  Rx     08508A00  1  00 
   796)    119983.5  Rx     14320101  8  00 40 12 C1 00 14 00 00 
   797)    119984.0  Rx     09508A00  6  53 89 42 3C 0B 72 
   798)    119984.5  Rx     14320601  8  12 5C 16 44 12 5C 16 44 
   799)    119984.8  Rx     08708B00  0  
   800)    119985.4  Rx     14321001  8  00 00 00 00 00 67 00 00 
   801)    119985.9  Rx     14320501  8  15 4A 00 55 00 AA 2B 03 
   802)    120007.7  Rx     1C105000  0  
   803)    120983.3  Rx     14320101  8  00 40 12 C1 00 14 00 00 
   804)    120983.8  Rx     14320501  8  15 4A 00 55 00 AA 2B 03 
   805)    120984.4  Rx     14321001  8  00 00 00 00 00 69 00 00 
   806)    120985.0  Rx     14320601  8  12 5C 16 44 12 5C 16 44 
   807)    121007.6  Rx     1C105000  0  
   808)    121427.7  Rx     08508A00  1  00 
   809)    121983.1  Rx     14320101  8  00 40 12 C1 00 14 00 00 
   810)    121983.6  Rx     09508A00  6  53 89 42 3C 0B 72 
   811)    121984.1  Rx     14320601  8  12 5C 16 44 12 5C 16 44 
   812)    121984.7  Rx     14321001  8  00 00 00 00 00 6B 00 00 
   813)    121985.3  Rx     14320501  8  15 4A 00 55 00 AA 2B 03 
   814)    122007.3  Rx     1C105000  0  
   815)    122982.8  Rx     14320101  8  00 40 12 C1 00 14 00 00 
   816)    122983.4  Rx     14320501  8  15 4A 00 55 00 AA 2B 03 
   817)    122984.0  Rx     14321001  8  00 00 00 00 00 6D 00 00 
   818)    122984.6  Rx     14320601  8  12 5C 16 44 12 5C 16 44 
   819)    123007.1  Rx     1C105000  0  
   820)    123427.2  Rx     08508A00  1  00 
   821)    123982.6  Rx     14320101  8  00 40 12 C1 00 14 00 00 
   822)    123983.0  Rx     09508A00  6  53 89 42 3C 0B 72 
   823)    123983.6  Rx     14320601  8  12 5C 16 44 12 5C 16 44 
   824)    123984.2  Rx     14321001  8  00 00 00 00 00 6F 00 00 
   825)    123984.7  Rx     14320501  8  15 4A 00 55 00 AA 2B 03 
   826)    124006.8  Rx     1C105000  0  
   827)    124982.3  Rx     14320101  8  00 40 12 C1 00 14 00 00 
   828)    124982.8  Rx     14320501  8  15 4A 00 55 00 AA 2B 03 
   829)    124983.4  Rx     14321001  8  00 00 00 00 00 71 00 00 
   830)    124983.9  Rx     14320601  8  12 5C 16 44 12 5C 16 44 
   831)    125006.5  Rx     1C105000  0  
   832)    125426.6  Rx     08508A00  1  00 
   833)    125982.0  Rx     14320101  8  00 40 12 C1 00 14 00 00 
   834)    125982.4  Rx     09508A00  6  53 89 42 3C 0B 72 
   835)    125983.0  Rx     14320601  8  12 5C 16 44 12 5C 16 44 
   836)    125983.6  Rx     14321001  8  00 00 00 00 00 73 00 00 
   837)    125984.1  Rx     14320501  8  15 4A 00 55 00 AA 2B 03 
   838)    126006.2  Rx     1C105000  0  
   839)    126981.7  Rx     14320101  8  00 40 12 C1 00 14 00 00 
   840)    126982.3  Rx     14320501  8  15 4A 00 55 00 AA 2B 03 
   841)    126982.8  Rx     14321001  8  00 00 00 00 00 75 00 00 
   842)    126983.4  Rx     14320601  8  12 5C 16 44 12 5C 16 44 
   843)    127005.9  Rx     1C105000  0  
   844)    127426.1  Rx     08508A00  1  00 
   845)    127981.5  Rx     14320101  8  00 40 12 C1 00 14 00 00 
   846)    127981.9  Rx     09508A00  6  53 89 42 3C 0B 72 
   847)    127982.5  Rx     14320601  8  12 5C 16 44 12 5C 16 44 
   848)    127982.8  Rx     08F08B00  0  
   849)    127983.3  Rx     14321001  8  00 00 00 00 00 77 00 00 
   850)    127983.9  Rx     14320501  8  15 4A 00 55 00 AA 2B 03 
   851)    128005.7  Rx     1C105000  0  
   852)    128981.2  Rx     14320101  8  00 40 12 C1 00 14 00 00 
   853)    128981.7  Rx     14320501  8  15 4A 00 55 00 AA 2B 03 
   854)    128982.3  Rx     14321001  8  00 00 00 00 00 79 00 00 
   855)    128982.9  Rx     14320601  8  12 5C 16 44 12 5C 16 44 
   856)    129005.4  Rx     1C105000  0  
   857)    129425.5  Rx     08508A00  1  00 
   858)    129980.9  Rx     14320101  8  00 40 12 C1 00 14 00 00 
   859)    129981.3  Rx     09508A00  6  53 89 42 3C 0B 72 
   860)    129981.9  Rx     14320601  8  12 5C 16 44 12 5C 16 44 
   861)    129982.2  Rx     08708B00  0  
   862)    129982.7  Rx     14321001  8  00 00 00 00 00 7B 00 00 
   863)    129983.3  Rx     14320501  8  15 4A 00 55 00 AA 2B 03 
   864)    130005.1  Rx     1C105000  0  
   865)    130980.6  Rx     14320101  8  00 40 12 C1 00 14 00 00 
   866)    130981.2  Rx     14320501  8  15 4A 00 55 00 AA 2B 03 
   867)    130981.8  Rx     14321001  8  00 00 00 00 00 7D 00 00 
   868)    130982.3  Rx     14320601  8  12 5C 16 44 12 5C 16 44 
   869)    131004.9  Rx     1C105000  0  
   870)    131425.0  Rx     08508A00  1  00 
   871)    131980.4  Rx     14320101  8  00 40 12 C1 00 14 00 00 
   872)    131980.8  Rx     09508A00  6  53 89 42 3C 0B 72 
   873)    131981.4  Rx     14320601  8  12 5C 16 44 12 5C 16 44 
   874)    131982.0  Rx     14321001  8  00 00 00 00 00 7F 00 00 
   875)    131982.5  Rx     14320501  8  15 4A 00 55 00 AA 2B 03 
   876)    132004.6  Rx     1C105000  0  
   877)    132980.1  Rx     14320101  8  00 40 12 C1 00 14 00 00 
   878)    132980.7  Rx     14320501  8  15 4A 00 55 00 AA 2B 03 
   879)    132981.3  Rx     14321001  8  00 00 00 00 00 81 00 00 
   880)    132981.8  Rx     14320601  8  12 5C 16 44 12 5C 16 44 
   881)    133004.4  Rx     1C105000  0  
   882)    133424.5  Rx     08508A00  1  00 
   883)    133979.9  Rx     14320101  8  00 40 12 C1 00 14 00 00 
   884)    133980.4  Rx     09508A00  6  53 89 42 3C 0B 72 
   885)    133981.0  Rx     14320601  8  12 5C 16 44 12 5C 16 44 
   886)    133981.5  Rx     14321001  8  00 00 00 00 00 83 00 00 
   887)    133982.1  Rx     14320501  8  15 4A 00 55 00 AA 2B 03 
   888)    134004.2  Rx     1C105000  0  
   889)    134979.7  Rx     14320101  8  00 40 12 C1 00 14 00 00 
   890)    134980.2  Rx     14320501  8  15 4A 00 55 00 AA 2B 03 
   891)    134980.8  Rx     14321001  8  00 00 00 00 00 85 00 00 
   892)    134981.4  Rx     14320601  8  12 5C 16 44 12 5C 16 44 
   893)    135003.9  Rx     1C105000  0  
   894)    135424.1  Rx     08508A00  1  00 
   895)    135979.4  Rx     14320101  8  00 40 12 C1 00 14 00 00 
   896)    135979.9  Rx     09508A00  6  53 89 42 3C 0B 72 
   897)    135980.4  Rx     14320601  8  12 5C 16 44 12 5C 16 44 
   898)    135981.0  Rx     14321001  8  00 00 00 00 00 87 00 00 
   899)    135981.6  Rx     14320501  8  15 4A 00 55 00 AA 2B 03 
   900)    136003.7  Rx     1C105000  0  
   901)    136979.2  Rx     14320101  8  00 40 12 C1 00 14 00 00 
   902)    136979.7  Rx     14320501  8  15 4A 00 55 00 AA 2B 03 
   903)    136980.3  Rx     14321001  8  00 00 00 00 00 89 00 00 
   904)    136980.9  Rx     14320601  8  12 5C 16 44 12 5C 16 44 
   905)    137003.4  Rx     1C105000  0  
   906)    137423.6  Rx     08508A00  1  00 
   907)    137978.9  Rx     14320101  8  00 40 12 C1 00 14 00 00 
   908)    137979.4  Rx     09508A00  6  53 89 42 3C 0B 72 
   909)    137980.0  Rx     14320601  8  12 5C 16 44 12 5C 16 44 
   910)    137980.2  Rx     08F08B00  0  
   911)    137980.8  Rx     14321001  8  00 00 00 00 00 8B 00 00 
   912)    137981.4  Rx     14320501  8  15 4A 00 55 00 AA 2B 03 
   913)    138003.2  Rx     1C105000  0  
   914)    138978.7  Rx     14320101  8  00 40 12 C1 00 14 00 00 
   915)    138979.3  Rx     14320501  8  15 4A 00 55 00 AA 2B 03 
   916)    138979.9  Rx     14321001  8  00 00 00 00 00 8D 00 00 
   917)    138980.4  Rx     14320601  8  12 5C 16 44 12 5C 16 44 
   918)    139002.9  Rx     1C105000  0  
   919)    139423.1  Rx     08508A00  1  00 
   920)    139978.5  Rx     14320101  8  00 40 12 C1 00 14 00 00 
   921)    139978.9  Rx     09508A00  6  53 89 42 3C 0B 72 
   922)    139979.5  Rx     14320601  8  12 5C 16 44 12 5C 16 44 
   923)    139979.8  Rx     08708B00  0  
   924)    139980.4  Rx     14321001  8  00 00 00 00 00 8F 00 00 
   925)    139980.9  Rx     14320501  8  15 4A 00 55 00 AA 2B 03 
   926)    140002.7  Rx     1C105000  0  
   927)    140978.2  Rx     14320101  8  00 40 12 C1 00 14 00 00 
   928)    140978.8  Rx     14320501  8  15 4A 00 55 00 AA 2B 03 
   929)    140979.4  Rx     14321001  8  00 00 00 00 00 91 00 00 
   930)    140979.9  Rx     14320601  8  12 5C 16 44 12 5C 16 44 
   931)    141002.5  Rx     1C105000  0  
   932)    141422.6  Rx     08508A00  1  00 
   933)    141978.0  Rx     14320101  8  00 40 12 C1 00 14 00 00 
   934)    141978.4  Rx     09508A00  6  53 89 42 3C 0B 72 
   935)    141979.0  Rx     14320601  8  12 5C 16 44 12 5C 16 44 
   936)    141979.6  Rx     14321001  8  00 00 00 00 00 93 00 00 
   937)    141980.1  Rx     14320501  8  15 4A 00 55 00 AA 2B 03 
   938)    142002.2  Rx     1C105000  0  
   939)    142977.6  Rx     14320101  8  00 40 12 C1 00 14 00 00 
   940)    142978.2  Rx     14320501  8  15 4A 00 55 00 AA 2B 03 
   941)    142978.8  Rx     14321001  8  00 00 00 00 00 95 00 00 
   942)    142979.4  Rx     14320601  8  12 5C 16 44 12 5C 16 44 
   943)    143001.9  Rx     1C105000  0  
   944)    143422.0  Rx     08508A00  1  00 
   945)    143977.4  Rx     14320101  8  00 40 12 C1 00 14 00 00 
   946)    143977.9  Rx     09508A00  6  53 89 42 3C 0B 72 
   947)    143978.4  Rx     14320601  8  12 5C 16 44 12 5C 16 44 
   948)    143979.0  Rx     14321001  8  00 00 00 00 00 97 00 00 
   949)    143979.5  Rx     14320501  8  15 4A 00 55 00 AA 2B 03 
   950)    144001.6  Rx     1C105000  0  
   951)    144977.2  Rx     14320101  8  00 40 12 C1 00 14 00 00 
   952)    144977.7  Rx     14320501  8  15 4A 00 55 00 AA 2B 03 
   953)    144978.3  Rx     14321001  8  00 00 00 00 00 99 00 00 
   954)    144978.9  Rx     14324001  8  00 00 00 0A 00 CD 9B BF 
   955)    144979.4  Rx     14320601  8  12 5C 16 44 12 5C 16 44 
   956)    145001.4  Rx     1C105000  0  
   957)    145421.6  Rx     08508A00  1  00 
   958)    145976.9  Rx     14320101  8  00 40 12 C1 00 14 00 00 
   959)    145977.3  Rx     09508A00  6  53 89 42 3C 0B 72 
   960)    145977.9  Rx     14320601  8  12 5C 16 44 12 5C 16 44 
   961)    145978.5  Rx     14321001  8  00 00 00 00 00 9B 00 00 
   962)    145979.0  Rx     14320501  8  15 4A 00 55 00 AA 2B 03 
   963)    146001.2  Rx     1C105000  0  
   964)    146976.6  Rx     14320101  8  00 40 12 C1 00 14 00 00 
   965)    146977.2  Rx     14320501  8  15 4A 00 55 00 AA 2B 03 
   966)    146977.8  Rx     14321001  8  00 00 00 00 00 9D 00 00 
   967)    146978.3  Rx     14320601  8  12 5C 16 44 12 5C 16 44 
   968)    147000.9  Rx     1C105000  0  
   969)    147421.0  Rx     08508A00  1  00 
   970)    147976.3  Rx     14320101  8  00 40 12 C1 00 14 00 00 
   971)    147976.8  Rx     09508A00  6  53 89 42 3C 0B 72 
   972)    147977.4  Rx     14320601  8  12 5C 16 44 12 5C 16 44 
   973)    147977.6  Rx     08F08B00  0  
   974)    147978.2  Rx     14321001  8  00 00 00 00 00 9F 00 00 
   975)    147978.8  Rx     14320501  8  15 4A 00 55 00 AA 2B 03 
   976)    148000.6  Rx     1C105000  0  
   977)    148975.9  Rx     14320101  8  00 40 12 C1 00 14 00 00 
   978)    148976.5  Rx     14320501  8  15 4A 00 55 00 AA 2B 03 
   979)    148977.1  Rx     14321001  8  00 00 00 00 00 A1 00 00 
   980)    148977.6  Rx     14320601  8  12 5C 16 44 12 5C 16 44 
   981)    149000.2  Rx     1C105000  0  
   982)    149420.2  Rx     08508A00  1  00 
   983)    149975.5  Rx     14320101  8  00 40 12 C1 00 14 00 00 
   984)    149976.0  Rx     09508A00  6  53 89 42 3C 0B 72 
   985)    149976.6  Rx     14320601  8  12 5C 16 44 12 5C 16 44 
   986)    149976.9  Rx     08708B00  0  
   987)    149977.4  Rx     14321001  8  00 00 00 00 00 A3 00 00 
   988)    149978.0  Rx     14320501  8  15 4A 00 55 00 AA 2B 03 
   989)    149999.8  Rx     1C105000  0  
   990)    150975.1  Rx     14320101  8  00 40 12 C1 00 14 00 00 
   991)    150975.7  Rx     14320501  8  15 4A 00 55 00 AA 2B 03 
   992)    150976.2  Rx     14321001  8  00 00 00 00 00 A5 00 00 
   993)    150976.8  Rx     14320601  8  12 5C 16 44 12 5C 16 44 
   994)    150999.4  Rx     1C105000  0  
   995)    151419.5  Rx     08508A00  1  00 
   996)    151974.8  Rx     14320101  8  00 40 12 C1 00 14 00 00 
   997)    151975.3  Rx     09508A00  6  53 89 42 3C 0B 72 
   998)    151975.8  Rx     14320601  8  12 5C 16 44 12 5C 16 44 
   999)    151976.4  Rx     14321001  8  00 00 00 00 00 A7 00 00 
  1000)    151977.0  Rx     14320501  8  15 4A 00 55 00 AA 2B 03 
  1001)    151999.0  Rx     1C105000  0  
  1002)    152974.5  Rx     14320101  8  00 40 12 C1 00 14 00 00 
  1003)    152975.0  Rx     14320501  8  15 4A 00 55 00 AA 2B 03 
  1004)    152975.6  Rx     14321001  8  00 00 00 00 00 A9 00 00 
  1005)    152976.2  Rx     14320601  8  12 5C 16 44 12 5C 16 44 
  1006)    152998.8  Rx     1C105000  0  
  1007)    153418.8  Rx     08508A00  1  00 
  1008)    153974.1  Rx     14320101  8  00 40 12 C1 00 14 00 00 
  1009)    153974.6  Rx     09508A00  6  53 89 42 3C 0B 72 
  1010)    153975.1  Rx     14320601  8  12 5C 16 44 12 5C 16 44 
  1011)    153975.7  Rx     14321001  8  00 00 00 00 00 AB 00 00 
  1012)    153976.3  Rx     14320501  8  15 4A 00 55 00 AA 2B 03 
  1013)    153998.4  Rx     1C105000  0  
  1014)    154973.8  Rx     14320101  8  00 40 12 C1 00 14 00 00 
  1015)    154974.3  Rx     14320501  8  15 4A 00 55 00 AA 2B 03 
  1016)    154974.9  Rx     14321001  8  00 00 00 00 00 AD 00 00 
  1017)    154975.5  Rx     14320601  8  12 5C 16 44 12 5C 16 44 
  1018)    154998.0  Rx     1C105000  0  
  1019)    155418.1  Rx     08508A00  1  00 
  1020)    155973.4  Rx     14320101  8  00 40 12 C1 00 14 00 00 
  1021)    155973.9  Rx     09508A00  6  53 89 42 3C 0B 72 
  1022)    155974.5  Rx     14320601  8  12 5C 16 44 12 5C 16 44 
  1023)    155975.0  Rx     14321001  8  00 00 00 00 00 AF 00 00 
  1024)    155975.6  Rx     14320501  8  15 4A 00 55 00 AA 2B 03 
  1025)    155997.7  Rx     1C105000  0  
  1026)    156973.1  Rx     14320101  8  00 40 12 C1 00 14 00 00 
  1027)    156973.7  Rx     14320501  8  15 4A 00 55 00 AA 2B 03 
  1028)    156974.2  Rx     14321001  8  00 00 00 00 00 B1 00 00 
  1029)    156974.8  Rx     14320601  8  12 5C 16 44 12 5C 16 44 
  1030)    156997.4  Rx     1C105000  0  
  1031)    157417.5  Rx     08508A00  1  00 
  1032)    157972.8  Rx     14320101  8  00 40 12 C1 00 14 00 00 
  1033)    157973.3  Rx     09508A00  6  53 89 42 3C 0B 72 
  1034)    157973.8  Rx     14320601  8  12 5C 16 44 12 5C 16 44 
  1035)    157974.1  Rx     08F08B00  0  
  1036)    157974.6  Rx     14321001  8  00 00 00 00 00 B3 00 00 
  1037)    157975.2  Rx     14320501  8  15 4A 00 55 00 AA 2B 03 
  1038)    157997.0  Rx     1C105000  0  
  1039)    158972.5  Rx     14320101  8  00 40 12 C1 00 14 00 00 
  1040)    158973.0  Rx     14320501  8  15 4A 00 55 00 AA 2B 03 
  1041)    158973.6  Rx     14321001  8  00 00 00 00 00 B5 00 00 
  1042)    158974.1  Rx     14320601  8  12 5C 16 44 12 5C 16 44 
  1043)    158996.8  Rx     1C105000  0  
  1044)    159416.8  Rx     08508A00  1  00 
  1045)    159972.1  Rx     14320101  8  00 40 12 C1 00 14 00 00 
  1046)    159972.6  Rx     09508A00  6  53 89 42 3C 0B 72 
  1047)    159973.1  Rx     14320601  8  12 5C 16 44 12 5C 16 44 
  1048)    159973.4  Rx     08708B00  0  
  1049)    159974.0  Rx     14321001  8  00 00 00 00 00 B7 00 00 
  1050)    159974.6  Rx     14320501  8  15 4A 00 55 00 AA 2B 03 
  1051)    159996.4  Rx     1C105000  0  
  1052)    160971.7  Rx     14320101  8  00 40 12 C1 00 14 00 00 
  1053)    160972.3  Rx     14320501  8  15 4A 00 55 00 AA 2B 03 
  1054)    160972.9  Rx     14321001  8  00 00 00 00 00 B9 00 00 
  1055)    160973.4  Rx     14320601  8  12 5C 16 44 12 5C 16 44 
  1056)    160996.0  Rx     1C105000  0  
  1057)    161416.0  Rx     08508A00  1  00 
  1058)    161971.3  Rx     14320101  8  00 40 12 C1 00 14 00 00 
  1059)    161971.7  Rx     09508A00  6  53 89 42 3C 0B 72 
  1060)    161972.3  Rx     14320601  8  12 5C 16 44 12 5C 16 44 
  1061)    161972.9  Rx     14321001  8  00 00 00 00 00 BB 00 00 
  1062)    161973.4  Rx     14320501  8  15 4A 00 55 00 AA 2B 03 
  1063)    161995.5  Rx     1C105000  0  
  1064)    162970.9  Rx     14320101  8  00 40 12 C1 00 14 00 00 
  1065)    162971.4  Rx     14320501  8  15 4A 00 55 00 AA 2B 03 
  1066)    162972.0  Rx     14321001  8  00 00 00 00 00 BD 00 00 
  1067)    162972.6  Rx     14320601  8  12 5C 16 44 12 5C 16 44 
  1068)    162995.1  Rx     1C105000  0  
  1069)    163415.1  Rx     08508A00  1  00 
  1070)    163970.5  Rx     14320101  8  00 40 12 C1 00 14 00 00 
  1071)    163970.9  Rx     09508A00  6  53 89 42 3C 0B 72 
  1072)    163971.5  Rx     14320601  8  12 5C 16 44 12 5C 16 44 
  1073)    163972.1  Rx     14321001  8  00 00 00 00 00 BF 00 00 
  1074)    163972.6  Rx     14320501  8  15 4A 00 55 00 AA 2B 03 
  1075)    163994.7  Rx     1C105000  0  
  1076)    164970.1  Rx     14320101  8  00 40 12 C1 00 14 00 00 
  1077)    164970.6  Rx     14320501  8  15 4A 00 55 00 AA 2B 03 
  1078)    164971.2  Rx     14321001  8  00 00 00 00 00 C1 00 00 
  1079)    164971.8  Rx     14320601  8  12 5C 16 44 12 5C 16 44 
  1080)    164994.3  Rx     1C105000  0  
  1081)    165414.4  Rx     08508A00  1  00 
  1082)    165969.7  Rx     14320101  8  00 40 12 C1 00 14 00 00 
  1083)    165970.2  Rx     09508A00  6  53 89 42 3C 0B 72 
  1084)    165970.8  Rx     14320601  8  12 5C 16 44 12 5C 16 44 
  1085)    165971.4  Rx     14321001  8  00 00 00 00 00 C3 00 00 
  1086)    165971.9  Rx     14320501  8  15 4A 00 55 00 AA 2B 03 
  1087)    165994.0  Rx     1C105000  0  
  1088)    166969.4  Rx     14320101  8  00 40 12 C1 00 14 00 00 
  1089)    166970.0  Rx     14320501  8  15 4A 00 55 00 AA 2B 03 
  1090)    166970.6  Rx     14321001  8  00 00 00 00 00 C5 00 00 
  1091)    166971.1  Rx     14320601  8  12 5C 16 44 12 5C 16 44 
  1092)    166993.6  Rx     1C105000  0  
  1093)    167413.7  Rx     08508A00  1  00 
  1094)    167969.0  Rx     14320101  8  00 40 12 C1 00 14 00 00 
  1095)    167969.5  Rx     09508A00  6  53 89 42 3C 0B 72 
  1096)    167970.0  Rx     14320601  8  12 5C 16 44 12 5C 16 44 
  1097)    167970.3  Rx     08F08B00  0  
  1098)    167970.9  Rx     14321001  8  00 00 00 00 00 C7 00 00 
  1099)    167971.5  Rx     14320501  8  15 4A 00 55 00 AA 2B 03 
  1100)    167993.2  Rx     1C105000  0  
  1101)    168968.6  Rx     14320101  8  00 40 12 C1 00 14 00 00 
  1102)    168969.2  Rx     14320501  8  15 4A 00 55 00 AA 2B 03 
  1103)    168969.8  Rx     14321001  8  00 00 00 00 00 C9 00 00 
  1104)    168970.3  Rx     14320601  8  12 5C 16 44 12 5C 16 44 
  1105)    168992.9  Rx     1C105000  0  
  1106)    169413.0  Rx     08508A00  1  00 
  1107)    169968.3  Rx     14320101  8  00 40 12 C1 00 14 00 00 
  1108)    169968.8  Rx     09508A00  6  53 89 42 3C 0B 72 
  1109)    169969.3  Rx     14320601  8  12 5C 16 44 12 5C 16 44 
  1110)    169969.6  Rx     08708B00  0  
  1111)    169970.2  Rx     14321001  8  00 00 00 00 00 CB 00 00 
  1112)    169970.8  Rx     14320501  8  15 4A 00 55 00 AA 2B 03 
  1113)    169992.5  Rx     1C105000  0  
  1114)    170967.9  Rx     14320101  8  00 40 12 C1 00 14 00 00 
  1115)    170968.4  Rx     14320501  8  15 4A 00 55 00 AA 2B 03 
  1116)    170969.0  Rx     14321001  8  00 00 00 00 00 CD 00 00 
  1117)    170969.6  Rx     14320601  8  12 5C 16 44 12 5C 16 44 
  1118)    170992.2  Rx     1C105000  0  
  1119)    171412.2  Rx     08508A00  1  00 
  1120)    171967.6  Rx     14320101  8  00 40 12 C1 00 14 00 00 
  1121)    171968.0  Rx     09508A00  6  53 89 42 3C 0B 72 
  1122)    171968.6  Rx     14320601  8  12 5C 16 44 12 5C 16 44 
  1123)    171969.2  Rx     14321001  8  00 00 00 00 00 CF 00 00 
  1124)    171969.7  Rx     14320501  8  15 4A 00 55 00 AA 2B 03 
  1125)    171991.7  Rx     1C105000  0  
  1126)    172967.1  Rx     14320101  8  00 40 12 C1 00 14 00 00 
  1127)    172967.7  Rx     14320501  8  15 4A 00 55 00 AA 2B 03 
  1128)    172968.3  Rx     14321001  8  00 00 00 00 00 D1 00 00 
  1129)    172968.9  Rx     14320601  8  12 5C 16 44 12 5C 16 44 
  1130)    172991.4  Rx     1C105000  0  
  1131)    173411.5  Rx     08508A00  1  00 
  1132)    173825.8  Rx     08508A00  1  00 
  1133)    173966.8  Rx     14320101  8  00 40 12 C1 00 14 00 00 
  1134)    173967.3  Rx     09508A00  6  53 89 42 3C 0B 72 
  1135)    173967.8  Rx     14320601  8  12 5C 16 44 12 5C 16 44 
  1136)    173968.4  Rx     14321001  8  00 00 00 00 00 D3 00 00 
  1137)    173969.0  Rx     14320501  8  15 4A 00 55 00 AA 2B 03 
  1138)    173991.1  Rx     1C105000  0  
  1139)    174966.5  Rx     14320101  8  00 40 12 C1 00 14 00 00 
  1140)    174967.1  Rx     14320501  8  15 4A 00 55 00 AA 2B 03 
  1141)    174967.7  Rx     14321001  8  00 00 00 00 00 D5 00 00 
  1142)    174968.2  Rx     14320601  8  12 5C 16 44 12 5C 16 44 
  1143)    174990.8  Rx     1C105000  0  
  1144)    175025.9  Rx     08508A00  1  00 
  1145)    175966.2  Rx     14320101  8  00 40 12 C1 00 14 00 00 
  1146)    175966.7  Rx     09508A00  6  53 89 42 3C 0B 72 
  1147)    175967.3  Rx     14320601  8  12 5C 16 44 12 5C 16 44 
  1148)    175967.9  Rx     14321001  8  00 00 00 00 00 D7 00 00 
  1149)    175968.4  Rx     14320501  8  15 4A 00 55 00 AA 2B 03 
  1150)    175990.5  Rx     1C105000  0  
  1151)    176425.5  Rx     08508A00  1  00 
  1152)    176966.0  Rx     14320101  8  00 40 12 C1 00 14 00 00 
  1153)    176966.5  Rx     14320501  8  15 4A 00 55 00 AA 2B 03 
  1154)    176967.1  Rx     14321001  8  00 00 00 00 00 D9 00 00 
  1155)    176967.6  Rx     14320601  8  12 5C 16 44 12 5C 16 44 
  1156)    176990.2  Rx     1C105000  0  
  1157)    177965.5  Rx     14320101  8  00 40 12 C1 00 14 00 00 
  1158)    177966.0  Rx     09508A00  6  53 89 42 3C 0B 72 
  1159)    177966.6  Rx     14320601  8  12 5C 16 44 12 5C 16 44 
  1160)    177966.9  Rx     08F08B00  0  
  1161)    177967.5  Rx     14321001  8  00 00 00 00 00 DB 00 00 
  1162)    177968.0  Rx     14320501  8  15 4A 00 55 00 AA 2B 03 
  1163)    177989.8  Rx     1C105000  0  
  1164)    178427.6  Rx     08508A00  1  00 
  1165)    178965.1  Rx     14320101  8  00 40 12 C1 00 14 00 00 
  1166)    178965.7  Rx     14320501  8  15 4A 00 55 00 AA 2B 03 
  1167)    178966.3  Rx     14321001  8  00 00 00 00 00 DD 00 00 
  1168)    178966.8  Rx     14320601  8  12 5C 16 44 12 5C 16 44 
  1169)    178989.3  Rx     1C105000  0  
  1170)    179964.7  Rx     14320101  8  00 40 12 C1 00 14 00 00 
  1171)    179965.1  Rx     09508A00  6  53 89 42 3C 0B 72 
  1172)    179965.7  Rx     14320601  8  12 5C 16 44 12 5C 16 44 
  1173)    179966.0  Rx     08708B00  0  
  1174)    179966.6  Rx     14321001  8  00 00 00 00 00 DF 00 00 
  1175)    179967.1  Rx     14320501  8  15 4A 00 55 00 AA 2B 03 
  1176)    179988.9  Rx     1C105000  0  
  1177)    180426.8  Rx     08508A00  1  00 
  1178)    180964.3  Rx     14320101  8  00 40 12 C1 00 14 00 00 
  1179)    180964.9  Rx     14320501  8  15 4A 00 55 00 AA 2B 03 
  1180)    180965.5  Rx     14321001  8  00 00 00 00 00 E1 00 00 
  1181)    180966.0  Rx     14320601  8  12 5C 16 44 12 5C 16 44 
  1182)    180988.6  Rx     1C105000  0  
  1183)    181964.0  Rx     14320101  8  00 40 12 C1 00 14 00 00 
  1184)    181964.5  Rx     09508A00  6  53 89 42 3C 0B 72 
  1185)    181965.0  Rx     14320601  8  12 5C 16 44 12 5C 16 44 
  1186)    181965.6  Rx     14321001  8  00 00 00 00 00 E3 00 00 
  1187)    181966.2  Rx     14320501  8  15 4A 00 55 00 AA 2B 03 
  1188)    181988.3  Rx     1C105000  0  
  1189)    182426.1  Rx     08508A00  1  00 
  1190)    182963.6  Rx     14320101  8  00 40 12 C1 00 14 00 00 
  1191)    182964.2  Rx     14320501  8  15 4A 00 55 00 AA 2B 03 
  1192)    182964.8  Rx     14321001  8  00 00 00 00 00 E5 00 00 
  1193)    182965.3  Rx     14320601  8  12 5C 16 44 12 5C 16 44 
  1194)    182987.9  Rx     1C105000  0  
  1195)    183963.2  Rx     14320101  8  00 40 12 C1 00 14 00 00 
  1196)    183963.7  Rx     09508A00  6  53 89 42 3C 0B 72 
  1197)    183964.3  Rx     14320601  8  12 5C 16 44 12 5C 16 44 
  1198)    183964.9  Rx     14321001  8  00 00 00 00 00 E7 00 00 
  1199)    183965.4  Rx     14320501  8  15 4A 00 55 00 AA 2B 03 
  1200)    183987.5  Rx     1C105000  0  
  1201)    184425.4  Rx     08508A00  1  00 
  1202)    184963.0  Rx     14320101  8  00 40 12 C1 00 14 00 00 
  1203)    184963.6  Rx     14320501  8  15 4A 00 55 00 AA 2B 03 
  1204)    184964.1  Rx     14321001  8  00 00 00 00 00 E9 00 00 
  1205)    184964.7  Rx     14320601  8  12 5C 16 44 12 5C 16 44 
  1206)    184987.2  Rx     1C105000  0  
  1207)    185962.6  Rx     14320101  8  00 40 12 C1 00 14 00 00 
  1208)    185963.1  Rx     09508A00  6  53 89 42 3C 0B 72 
  1209)    185963.6  Rx     14320601  8  12 5C 16 44 12 5C 16 44 
  1210)    185964.2  Rx     14321001  8  00 00 00 00 00 EB 00 00 
  1211)    185964.7  Rx     14320501  8  15 4A 00 55 00 AA 2B 03 
  1212)    185986.8  Rx     1C105000  0  
  1213)    186424.7  Rx     08508A00  1  00 
