;$FILEVERSION=1.1
;$STARTTIME=46018.8195726402
;
;   /Users/maxim.anurin/w-own/me/obsolete-jekyll/content/_uk-UA/weekend-project-2025-10-18-connecting-a-generator-to-a-solar-inverter.files/CAN-dumps/20251227214011_PCAN_USBBUS1.trc
;
;   Start time: 27/12/2025 21:40:11.076.1
;   PCAN-Channel: PCAN_USBBUS1
;   Driver version: PCBUSB 0.13.0.1978 - (IOUSBKit, x86_64)
;   Generated by PCBUSB API, version 4.9.0.1
;
;   Message Number
;   |         Time Offset (ms)
;   |         |        Type
;   |         |        |        ID (hex)
;   |         |        |        |     Data Length Code
;   |         |        |        |     |   Data Bytes (hex) ...
;   |         |        |        |     |   |
;---+--   ----+----  --+--  ----+---  +  -+ -- -- -- -- -- -- --
     1)     18877.2  Rx     08508A00  1  10 
     2)     18877.5  Rx     08508A00  1  10 
     3)     18877.8  Rx     08508A00  1  10 
     4)     18878.1  Rx     08508A00  1  10 
     5)     18878.4  Rx     08508A00  1  10 
     6)     18878.7  Rx     08508A00  1  10 
     7)     18879.0  Rx     08508A00  1  10 
     8)     18879.3  Rx     08508A00  1  10 
     9)     18879.7  Rx     08508A00  1  10 
    10)     18880.0  Rx     08508A00  1  10 
    11)     18880.3  Rx     08508A00  1  10 
    12)     18880.6  Rx     08508A00  1  10 
    13)     18881.0  Rx     08508A00  1  10 
    14)     18881.3  Rx     08508A00  1  10 
    15)     18881.6  Rx     08508A00  1  10 
    16)     18881.9  Rx     08508A00  1  10 
    17)     19277.0  Rx     08508A00  1  10 
    18)     19277.4  Rx     08508A00  1  10 
    19)     19277.7  Rx     08508A00  1  10 
    20)     19278.0  Rx     08508A00  1  10 
    21)     19279.2  Rx     08508A00  1  10 
    22)     19279.5  Rx     08508A00  1  10 
    23)     19279.8  Rx     08508A00  1  10 
    24)     19281.1  Rx     08508A00  1  10 
    25)     19281.4  Rx     08508A00  1  10 
    26)     19281.7  Rx     08508A00  1  10 
    27)     19282.1  Rx     08508A00  1  10 
    28)     19283.1  Rx     08508A00  1  10 
    29)     19283.4  Rx     08508A00  1  10 
    30)     19283.7  Rx     08508A00  1  10 
    31)     19284.1  Rx     08508A00  1  10 
    32)     19285.1  Rx     08508A00  1  10 
    33)     19285.4  Rx     08508A00  1  00 
    34)     19285.8  Rx     08508A00  1  00 
    35)     19286.1  Rx     08508A00  1  00 
    36)     19286.4  Rx     08508A00  1  00 
    37)     19350.5  Rx     08508A00  1  00 
    38)     19350.8  Rx     08508A00  1  00 
    39)     19351.4  Rx     14320101  8  00 40 7F FF FF FF FF FF 
    40)     19500.4  Rx     08508A00  1  00 
    41)     19500.7  Rx     08508A00  1  00 
    42)     19530.1  Rx     08508A00  1  00 
    43)     19530.5  Rx     08508A00  1  00 
    44)     19530.8  Rx     08508A00  1  00 
    45)     19531.1  Rx     08508A00  1  00 
    46)     19531.4  Rx     08508A00  1  00 
    47)     19531.8  Rx     08508A00  1  00 
    48)     19532.1  Rx     08508A00  1  00 
    49)     19532.4  Rx     08508A00  1  00 
    50)     19532.7  Rx     08508A00  1  00 
    51)     19533.0  Rx     08508A00  1  00 
    52)     19534.4  Rx     08508A00  1  00 
    53)     19534.7  Rx     08508A00  1  00 
    54)     19535.1  Rx     08508A00  1  00 
    55)     19535.4  Rx     08508A00  1  00 
    56)     19535.7  Rx     08508A00  1  00 
    57)     19536.0  Rx     08508A00  1  00 
    58)     19536.4  Rx     08508A00  1  00 
    59)     19536.7  Rx     08508A00  1  00 
    60)     19537.0  Rx     08508A00  1  00 
    61)     19537.3  Rx     08508A00  1  00 
    62)     19537.6  Rx     08508A00  1  00 
    63)     19537.9  Rx     08508A00  1  00 
    64)     19600.8  Rx     08508A00  1  00 
    65)     19602.2  Rx     08508A00  1  00 
    66)     19602.5  Rx     08508A00  1  00 
    67)     19603.1  Rx     14320101  8  00 40 7F FF FF FF FF FF 
    68)     19603.7  Rx     14320101  8  00 40 7F FF FF FF FF FF 
    69)     19604.2  Rx     14320101  8  00 40 7F FF FF FF FF FF 
    70)     19752.0  Rx     08508A00  1  00 
    71)     19752.3  Rx     08508A00  1  00 
    72)     19780.0  Rx     08508A00  1  00 
    73)     19780.4  Rx     08508A00  1  00 
    74)     19873.6  Rx     00102000  0  
    75)     20870.3  Rx     1C105000  0  
    76)     21814.9  Rx     08508A00  1  00 
    77)     21869.9  Rx     1C105000  0  
    78)     22845.5  Rx     14320101  8  00 40 12 C1 00 14 00 00 
    79)     22846.1  Rx     14320501  8  15 4A 00 00 00 00 0B 02 
    80)     22846.7  Rx     14320601  8  12 5C 16 44 12 5C 16 44 
    81)     22869.6  Rx     1C105000  0  
    82)     23845.0  Rx     14320101  8  00 40 12 C3 00 14 00 00 
    83)     23845.6  Rx     14320501  8  15 4A 00 00 00 00 0B 02 
    84)     23846.2  Rx     14321001  8  00 00 00 00 00 02 00 00 
    85)     23846.5  Rx     08508A00  1  00 
    86)     23847.0  Rx     14320601  8  12 5C 16 44 12 5C 16 44 
    87)     23869.3  Rx     1C105000  0  
    88)     24845.0  Rx     14320101  8  00 40 12 C3 00 14 00 00 
    89)     24845.6  Rx     14320501  8  15 4A 00 00 00 00 0B 02 
    90)     24846.2  Rx     14321001  8  00 00 00 00 00 04 00 00 
    91)     24846.5  Rx     08508A00  1  00 
    92)     24846.8  Rx     08508A00  1  00 
    93)     24847.4  Rx     14320601  8  12 5C 16 44 12 5C 16 44 
    94)     24868.9  Rx     1C105000  0  
    95)     24869.2  Rx     00102000  0  
    96)     25844.2  Rx     14320101  8  00 40 12 C1 00 14 00 00 
    97)     25844.7  Rx     09508A00  6  52 CB 42 3C 0B 72 
    98)     25845.2  Rx     14320601  8  12 5C 16 44 12 5C 16 44 
    99)     25845.8  Rx     14321001  8  00 00 00 00 00 06 00 00 
   100)     25846.4  Rx     14320501  8  15 4A 00 00 00 00 0B 02 
   101)     25868.4  Rx     1C105000  0  
   102)     26843.8  Rx     14320101  8  00 40 12 C1 00 14 00 00 
   103)     26844.4  Rx     14320501  8  15 4A 00 55 00 AA 2B 02 
   104)     26844.9  Rx     14321001  8  00 00 00 00 00 08 00 00 
   105)     26845.3  Rx     08508A00  1  00 
   106)     26845.6  Rx     08508A00  1  00 
   107)     26846.2  Rx     14324001  8  00 00 00 57 00 CD 9D 5F 
   108)     26846.7  Rx     14320601  8  12 5C 16 44 12 5C 16 44 
   109)     26868.0  Rx     1C105000  0  
   110)     27843.4  Rx     14320101  8  00 40 12 C1 00 14 00 00 
   111)     27843.8  Rx     09508A00  6  52 D3 42 3C 0B 72 
   112)     27844.4  Rx     14320601  8  12 5C 16 44 12 5C 16 44 
   113)     27844.9  Rx     14321001  8  00 00 00 00 00 0A 00 00 
   114)     27845.5  Rx     14320501  8  15 4A 00 55 00 AA 2B 02 
   115)     27867.6  Rx     1C105000  0  
   116)     28842.9  Rx     14320101  8  00 40 12 C1 00 14 00 00 
   117)     28843.4  Rx     14320501  8  15 4A 00 55 00 AA 2B 02 
   118)     28844.0  Rx     14321001  8  00 00 00 00 00 0C 00 00 
   119)     28844.6  Rx     14320601  8  12 5C 16 44 12 5C 16 44 
   120)     28846.2  Rx     08508A00  1  00 
   121)     28867.1  Rx     1C105000  0  
   122)     29842.4  Rx     14320101  8  00 40 12 C1 00 14 00 00 
   123)     29842.8  Rx     09508A00  6  52 DB 42 3C 0B 72 
   124)     29843.4  Rx     14320601  8  12 5C 16 44 12 5C 16 44 
   125)     29843.7  Rx     08F08B00  0  
   126)     29844.3  Rx     14321001  8  00 00 00 00 00 0E 00 00 
   127)     29844.8  Rx     14320501  8  15 4A 00 55 00 AA 2B 02 
   128)     29866.7  Rx     1C105000  0  
   129)     29866.9  Rx     00102000  0  
   130)     30841.9  Rx     14320101  8  00 40 12 C1 00 14 00 00 
   131)     30842.5  Rx     14320501  8  15 4A 00 55 00 AA 2B 02 
   132)     30843.1  Rx     14321001  8  00 00 00 00 00 10 00 00 
   133)     30843.6  Rx     14320601  8  12 5C 16 44 12 5C 16 44 
   134)     30845.4  Rx     08508A00  1  00 
   135)     30866.2  Rx     1C105000  0  
   136)     31841.5  Rx     14320101  8  00 40 12 C1 00 14 00 00 
   137)     31842.0  Rx     09508A00  6  52 E3 42 3C 0B 72 
   138)     31842.6  Rx     14320601  8  12 5C 16 44 12 5C 16 44 
   139)     31842.8  Rx     08708B00  0  
   140)     31843.1  Rx     08508A00  1  00 
   141)     31843.5  Rx     08508A00  1  00 
   142)     31844.1  Rx     14321001  8  00 00 00 00 00 12 00 00 
   143)     31844.6  Rx     14320501  8  15 4A 00 55 00 AA 2B 02 
   144)     31865.8  Rx     1C105000  0  
   145)     32841.1  Rx     14320101  8  00 40 12 C1 00 14 00 00 
   146)     32841.7  Rx     14320501  8  15 4A 00 55 00 AA 2B 02 
   147)     32842.2  Rx     14321001  8  00 00 00 00 00 14 00 00 
   148)     32842.8  Rx     14320601  8  12 5C 16 44 12 5C 16 44 
   149)     32865.3  Rx     1C105000  0  
   150)     33840.6  Rx     14320101  8  00 40 12 C1 00 14 00 00 
   151)     33841.1  Rx     09508A00  6  52 EB 42 3C 0B 72 
   152)     33841.6  Rx     14320601  8  12 5C 16 44 12 5C 16 44 
   153)     33842.2  Rx     14321001  8  00 00 00 00 00 16 00 00 
   154)     33842.8  Rx     14320501  8  15 4A 00 55 00 AA 2B 02 
   155)     33844.1  Rx     08508A00  1  00 
   156)     33864.9  Rx     1C105000  0  
   157)     34840.1  Rx     14320101  8  00 40 12 C1 00 14 00 00 
   158)     34840.7  Rx     14320501  8  15 4A 00 55 00 AA 2B 02 
   159)     34841.3  Rx     14321001  8  00 00 00 00 00 18 00 00 
   160)     34841.8  Rx     14320601  8  12 5C 16 44 12 5C 16 44 
   161)     34864.4  Rx     1C105000  0  
   162)     34864.7  Rx     00102000  0  
   163)     35839.7  Rx     14320101  8  00 40 12 C1 00 14 00 00 
   164)     35840.2  Rx     09508A00  6  52 F3 42 3C 0B 72 
   165)     35840.7  Rx     14320601  8  12 5C 16 44 12 5C 16 44 
   166)     35841.3  Rx     14321001  8  00 00 00 00 00 1A 00 00 
   167)     35841.9  Rx     14320501  8  15 4A 00 55 00 AA 2B 02 
   168)     35843.2  Rx     08508A00  1  00 
   169)     35863.9  Rx     1C105000  0  
   170)     36839.2  Rx     14320101  8  00 40 12 C1 00 14 00 00 
   171)     36839.8  Rx     14320501  8  15 4A 00 55 00 AA 2B 02 
   172)     36840.4  Rx     14321001  8  00 00 00 00 00 1C 00 00 
   173)     36840.9  Rx     14320601  8  12 5C 16 44 12 5C 16 44 
   174)     36863.5  Rx     1C105000  0  
   175)     37838.7  Rx     14320101  8  00 40 12 C1 00 14 00 00 
   176)     37839.2  Rx     09508A00  6  52 FB 42 3C 0B 72 
   177)     37839.8  Rx     14320601  8  12 5C 16 44 12 5C 16 44 
   178)     37840.4  Rx     14321001  8  00 00 00 00 00 1E 00 00 
   179)     37840.9  Rx     14320501  8  15 4A 00 55 00 AA 2B 02 
   180)     37842.2  Rx     08508A00  1  00 
   181)     37863.0  Rx     1C105000  0  
   182)     38838.3  Rx     14320101  8  00 40 12 C1 00 14 00 00 
   183)     38838.8  Rx     14320501  8  15 4A 00 55 00 AA 2B 02 
   184)     38839.4  Rx     14321001  8  00 00 00 00 00 20 00 00 
   185)     38840.0  Rx     14320601  8  12 5C 16 44 12 5C 16 44 
   186)     38862.5  Rx     1C105000  0  
   187)     39837.8  Rx     14320101  8  00 40 12 C1 00 14 00 00 
   188)     39838.3  Rx     09508A00  6  53 03 42 3C 0B 72 
   189)     39838.8  Rx     14320601  8  12 5C 16 44 12 5C 16 44 
   190)     39839.4  Rx     14321001  8  00 00 00 00 00 22 00 00 
   191)     39839.7  Rx     08F08B00  0  
   192)     39840.3  Rx     14320501  8  15 4A 00 55 00 AA 2B 02 
   193)     39841.4  Rx     08508A00  1  00 
   194)     39862.0  Rx     1C105000  0  
   195)     39862.4  Rx     00102000  0  
   196)     40837.3  Rx     14320101  8  00 40 12 C1 00 14 00 00 
   197)     40837.9  Rx     14320501  8  15 4A 00 55 00 AA 2B 02 
   198)     40838.5  Rx     14321001  8  00 00 00 00 00 24 00 00 
   199)     40839.0  Rx     14320601  8  12 5C 16 44 12 5C 16 44 
   200)     40861.6  Rx     1C105000  0  
   201)     41836.8  Rx     14320101  8  00 40 12 C1 00 14 00 00 
   202)     41837.3  Rx     09508A00  6  53 0B 42 3C 0B 72 
   203)     41837.9  Rx     14320601  8  12 5C 16 44 12 5C 16 44 
   204)     41838.4  Rx     14321001  8  00 00 00 00 00 26 00 00 
   205)     41838.7  Rx     08708B00  0  
   206)     41839.3  Rx     14320501  8  15 4A 00 55 00 AA 2B 02 
   207)     41840.4  Rx     08508A00  1  00 
   208)     41861.1  Rx     1C105000  0  
   209)     42836.4  Rx     14320101  8  00 40 12 C1 00 14 00 00 
   210)     42836.9  Rx     14320501  8  15 4A 00 55 00 AA 2B 02 
   211)     42837.5  Rx     14321001  8  00 00 00 00 00 28 00 00 
   212)     42838.0  Rx     14320601  8  12 5C 16 44 12 5C 16 44 
   213)     42860.7  Rx     1C105000  0  
   214)     43835.9  Rx     14320101  8  00 40 12 C1 00 14 00 00 
   215)     43836.4  Rx     09508A00  6  53 13 42 3C 0B 72 
   216)     43836.9  Rx     14320601  8  12 5C 16 44 12 5C 16 44 
   217)     43837.5  Rx     14321001  8  00 00 00 00 00 2A 00 00 
   218)     43838.1  Rx     14320501  8  15 4A 00 55 00 AA 2B 02 
   219)     43839.4  Rx     08508A00  1  00 
   220)     43860.1  Rx     1C105000  0  
   221)     44835.4  Rx     14320101  8  00 40 12 C1 00 14 00 00 
   222)     44836.0  Rx     14320501  8  15 4A 00 55 00 AA 2B 02 
   223)     44836.6  Rx     14321001  8  00 00 00 00 00 2C 00 00 
   224)     44837.1  Rx     14320601  8  12 5C 16 44 12 5C 16 44 
   225)     44859.7  Rx     1C105000  0  
   226)     44860.0  Rx     00102000  0  
   227)     45835.0  Rx     14320101  8  00 40 12 C1 00 14 00 00 
   228)     45835.5  Rx     09508A00  6  53 1B 42 3C 0B 72 
   229)     45836.0  Rx     14320601  8  12 5C 16 44 12 5C 16 44 
   230)     45836.6  Rx     14321001  8  00 00 00 00 00 2E 00 00 
   231)     45837.1  Rx     14320501  8  15 4A 00 55 00 AA 2B 02 
   232)     45838.5  Rx     08508A00  1  00 
   233)     45859.2  Rx     1C105000  0  
   234)     46834.5  Rx     14320101  8  00 40 12 C1 00 14 00 00 
   235)     46835.0  Rx     14320501  8  15 4A 00 55 00 AA 2B 02 
   236)     46835.6  Rx     14321001  8  00 00 00 00 00 30 00 00 
   237)     46836.2  Rx     14320601  8  12 5C 16 44 12 5C 16 44 
   238)     46858.7  Rx     1C105000  0  
   239)     47834.0  Rx     14320101  8  00 40 12 C1 00 14 00 00 
   240)     47834.4  Rx     09508A00  6  53 23 42 3C 0B 72 
   241)     47835.0  Rx     14320601  8  12 5C 16 44 12 5C 16 44 
   242)     47835.6  Rx     14321001  8  00 00 00 00 00 32 00 00 
   243)     47836.1  Rx     14320501  8  15 4A 00 55 00 AA 2B 02 
   244)     47837.4  Rx     08508A00  1  00 
   245)     47858.2  Rx     1C105000  0  
   246)     48833.5  Rx     14320101  8  00 40 12 C1 00 14 00 00 
   247)     48834.1  Rx     14320501  8  15 4A 00 55 00 AA 2B 02 
   248)     48834.6  Rx     14321001  8  00 00 00 00 00 34 00 00 
   249)     48835.2  Rx     14320601  8  12 5C 16 44 12 5C 16 44 
   250)     48857.8  Rx     1C105000  0  
   251)     49833.1  Rx     14320101  8  00 40 12 C1 00 14 00 00 
   252)     49833.6  Rx     09508A00  6  53 2B 42 3C 0B 72 
   253)     49834.1  Rx     14320601  8  12 5C 16 44 12 5C 16 44 
   254)     49834.7  Rx     14321001  8  00 00 00 00 00 36 00 00 
   255)     49835.0  Rx     08F08B00  0  
   256)     49835.5  Rx     14320501  8  15 4A 00 55 00 AA 2B 02 
   257)     49836.7  Rx     08508A00  1  00 
   258)     49857.4  Rx     1C105000  0  
   259)     49857.7  Rx     00102000  0  
   260)     50832.6  Rx     14320101  8  00 40 12 C1 00 14 00 00 
   261)     50833.1  Rx     14320501  8  15 4A 00 55 00 AA 2B 02 
   262)     50833.7  Rx     14321001  8  00 00 00 00 00 38 00 00 
   263)     50834.2  Rx     14320601  8  12 5C 16 44 12 5C 16 44 
   264)     50856.8  Rx     1C105000  0  
   265)     51832.2  Rx     14320101  8  00 40 12 C1 00 14 00 00 
   266)     51832.6  Rx     09508A00  6  53 33 42 3C 0B 72 
   267)     51833.2  Rx     14320601  8  12 5C 16 44 12 5C 16 44 
   268)     51833.8  Rx     14321001  8  00 00 00 00 00 3A 00 00 
   269)     51834.1  Rx     08708B00  0  
   270)     51834.6  Rx     14320501  8  15 4A 00 55 00 AA 2B 02 
   271)     51835.7  Rx     08508A00  1  00 
   272)     51856.4  Rx     1C105000  0  
   273)     52831.7  Rx     14320101  8  00 40 12 C1 00 14 00 00 
   274)     52832.2  Rx     14320501  8  15 4A 00 55 00 AA 2B 02 
   275)     52832.8  Rx     14321001  8  00 00 00 00 00 3C 00 00 
   276)     52833.4  Rx     14320601  8  12 5C 16 44 12 5C 16 44 
   277)     52855.9  Rx     1C105000  0  
   278)     53831.2  Rx     14320101  8  00 40 12 C1 00 14 00 00 
   279)     53831.7  Rx     09508A00  6  53 3B 42 3C 0B 72 
   280)     53832.3  Rx     14320601  8  12 5C 16 44 12 5C 16 44 
   281)     53832.8  Rx     14321001  8  00 00 00 00 00 3E 00 00 
   282)     53833.4  Rx     14320501  8  15 4A 00 55 00 AA 2B 03 
   283)     53834.7  Rx     08508A00  1  00 
   284)     53855.4  Rx     1C105000  0  
   285)     54830.7  Rx     14320101  8  00 40 12 C1 00 14 00 00 
   286)     54831.3  Rx     14320501  8  15 4A 00 55 00 AA 2B 03 
   287)     54831.9  Rx     14321001  8  00 00 00 00 00 40 00 00 
   288)     54832.4  Rx     14320601  8  12 5C 16 44 12 5C 16 44 
   289)     54855.0  Rx     1C105000  0  
   290)     54855.3  Rx     00102000  0  
   291)     55830.2  Rx     14320101  8  00 40 12 C1 00 14 00 00 
   292)     55830.7  Rx     09508A00  6  53 43 42 3C 0B 72 
   293)     55831.2  Rx     14320601  8  12 5C 16 44 12 5C 16 44 
   294)     55831.8  Rx     14321001  8  00 00 00 00 00 42 00 00 
   295)     55832.4  Rx     14320501  8  15 4A 00 55 00 AA 2B 03 
   296)     55833.8  Rx     08508A00  1  00 
   297)     55854.5  Rx     1C105000  0  
   298)     56829.8  Rx     14320101  8  00 40 12 C1 00 14 00 00 
   299)     56830.3  Rx     14320501  8  15 4A 00 55 00 AA 2B 03 
   300)     56830.9  Rx     14321001  8  00 00 00 00 00 44 00 00 
   301)     56831.4  Rx     14320601  8  12 5C 16 44 12 5C 16 44 
   302)     56854.0  Rx     1C105000  0  
   303)     57829.3  Rx     14320101  8  00 40 12 C1 00 14 00 00 
   304)     57829.7  Rx     09508A00  6  53 4B 42 3C 0B 72 
   305)     57830.3  Rx     14320601  8  12 5C 16 44 12 5C 16 44 
   306)     57830.9  Rx     14321001  8  00 00 00 00 00 46 00 00 
   307)     57831.5  Rx     14320501  8  15 4A 00 55 00 AA 2B 03 
   308)     57832.7  Rx     08508A00  1  00 
   309)     57853.5  Rx     1C105000  0  
   310)     58828.7  Rx     14320101  8  00 40 12 C1 00 14 00 00 
   311)     58829.3  Rx     14320501  8  15 4A 00 55 00 AA 2B 03 
   312)     58829.9  Rx     14321001  8  00 00 00 00 00 48 00 00 
   313)     58830.4  Rx     14320601  8  12 5C 16 44 12 5C 16 44 
   314)     58853.0  Rx     1C105000  0  
   315)     59828.4  Rx     14320101  8  00 40 12 C1 00 14 00 00 
   316)     59828.8  Rx     09508A00  6  53 53 42 3C 0B 72 
   317)     59829.4  Rx     14320601  8  12 5C 16 44 12 5C 16 44 
   318)     59830.0  Rx     14321001  8  00 00 00 00 00 4A 00 00 
   319)     59830.3  Rx     08F08B00  0  
   320)     59830.8  Rx     14320501  8  15 4A 00 55 00 AA 2B 03 
   321)     59831.9  Rx     08508A00  1  00 
   322)     59852.6  Rx     1C105000  0  
   323)     59852.9  Rx     00102000  0  
   324)     60827.9  Rx     14320101  8  00 40 12 C1 00 14 00 00 
   325)     60828.5  Rx     14320501  8  15 4A 00 55 00 AA 2B 03 
   326)     60829.1  Rx     14321001  8  00 00 00 00 00 4C 00 00 
   327)     60829.6  Rx     14320601  8  12 5C 16 44 12 5C 16 44 
   328)     60852.2  Rx     1C105000  0  
   329)     61827.5  Rx     14320101  8  00 40 12 C1 00 14 00 00 
   330)     61828.0  Rx     09508A00  6  53 5B 42 3C 0B 72 
   331)     61828.6  Rx     14320601  8  12 5C 16 44 12 5C 16 44 
   332)     61829.1  Rx     14321001  8  00 00 00 00 00 4E 00 00 
   333)     61829.4  Rx     08708B00  0  
   334)     61830.0  Rx     14320501  8  15 4A 00 55 00 AA 2B 03 
   335)     61831.1  Rx     08508A00  1  00 
   336)     61851.8  Rx     1C105000  0  
   337)     62827.1  Rx     14320101  8  00 40 12 C1 00 14 00 00 
   338)     62827.6  Rx     14320501  8  15 4A 00 55 00 AA 2B 03 
   339)     62828.2  Rx     14321001  8  00 00 00 00 00 50 00 00 
   340)     62828.8  Rx     14320601  8  12 5C 16 44 12 5C 16 44 
   341)     62851.4  Rx     1C105000  0  
   342)     63826.6  Rx     14320101  8  00 40 12 C1 00 14 00 00 
   343)     63827.1  Rx     09508A00  6  53 63 42 3C 0B 72 
   344)     63827.7  Rx     14320601  8  12 5C 16 44 12 5C 16 44 
   345)     63828.3  Rx     14321001  8  00 00 00 00 00 52 00 00 
   346)     63828.8  Rx     14320501  8  15 4A 00 55 00 AA 2B 03 
   347)     63830.2  Rx     08508A00  1  00 
   348)     63850.9  Rx     1C105000  0  
   349)     64826.2  Rx     14320101  8  00 40 12 C1 00 14 00 00 
   350)     64826.8  Rx     14320501  8  15 4A 00 55 00 AA 2B 03 
   351)     64827.4  Rx     14321001  8  00 00 00 00 00 54 00 00 
   352)     64827.9  Rx     14320601  8  12 5C 16 44 12 5C 16 44 
   353)     64850.5  Rx     1C105000  0  
   354)     64850.8  Rx     00102000  0  
   355)     65825.7  Rx     14320101  8  00 40 12 C1 00 14 00 00 
   356)     65826.2  Rx     09508A00  6  53 6B 42 3C 0B 72 
   357)     65826.8  Rx     14320601  8  12 5C 16 44 12 5C 16 44 
   358)     65827.4  Rx     14321001  8  00 00 00 00 00 56 00 00 
   359)     65827.9  Rx     14320501  8  15 4A 00 55 00 AA 2B 03 
   360)     65829.3  Rx     08508A00  1  00 
   361)     65850.0  Rx     1C105000  0  
   362)     66825.3  Rx     14320101  8  00 40 12 C1 00 14 00 00 
   363)     66825.8  Rx     14320501  8  15 4A 00 55 00 AA 2B 03 
   364)     66826.4  Rx     14321001  8  00 00 00 00 00 58 00 00 
   365)     66827.0  Rx     14320601  8  12 5C 16 44 12 5C 16 44 
   366)     66849.5  Rx     1C105000  0  
   367)     67824.8  Rx     14320101  8  00 40 12 C1 00 14 00 00 
   368)     67825.3  Rx     09508A00  6  53 73 42 3C 0B 72 
   369)     67825.9  Rx     14320601  8  12 5C 16 44 12 5C 16 44 
   370)     67826.4  Rx     14321001  8  00 00 00 00 00 5A 00 00 
   371)     67827.0  Rx     14320501  8  15 4A 00 55 00 AA 2B 03 
   372)     67828.3  Rx     08508A00  1  00 
   373)     67849.0  Rx     1C105000  0  
   374)     68824.3  Rx     14320101  8  00 40 12 C1 00 14 00 00 
   375)     68824.9  Rx     14320501  8  15 4A 00 55 00 AA 2B 03 
   376)     68825.5  Rx     14321001  8  00 00 00 00 00 5C 00 00 
   377)     68826.0  Rx     14320601  8  12 5C 16 44 12 5C 16 44 
   378)     68848.5  Rx     1C105000  0  
   379)     69823.9  Rx     14320101  8  00 40 12 C1 00 14 00 00 
   380)     69824.3  Rx     09508A00  6  53 7B 42 3C 0B 72 
   381)     69824.9  Rx     14320601  8  12 5C 16 44 12 5C 16 44 
   382)     69825.4  Rx     14321001  8  00 00 00 00 00 5E 00 00 
   383)     69825.7  Rx     08F08B00  0  
   384)     69826.3  Rx     14320501  8  15 4A 00 55 00 AA 2B 03 
   385)     69827.4  Rx     08508A00  1  00 
   386)     69848.1  Rx     1C105000  0  
   387)     69848.3  Rx     00102000  0  
   388)     70823.4  Rx     14320101  8  00 40 12 C1 00 14 00 00 
   389)     70823.9  Rx     14320501  8  15 4A 00 55 00 AA 2B 03 
   390)     70824.5  Rx     14321001  8  00 00 00 00 00 60 00 00 
   391)     70825.0  Rx     14320601  8  12 5C 16 44 12 5C 16 44 
   392)     70847.6  Rx     1C105000  0  
   393)     71822.9  Rx     14320101  8  00 40 12 C1 00 14 00 00 
   394)     71823.3  Rx     09508A00  6  53 83 42 3C 0B 72 
   395)     71823.9  Rx     14320601  8  12 5C 16 44 12 5C 16 44 
   396)     71824.5  Rx     14321001  8  00 00 00 00 00 62 00 00 
   397)     71824.8  Rx     08708B00  0  
   398)     71825.4  Rx     14320501  8  15 4A 00 55 00 AA 2B 03 
   399)     71826.4  Rx     08508A00  1  00 
   400)     71847.2  Rx     1C105000  0  
   401)     72822.5  Rx     14320101  8  00 40 12 C1 00 14 00 00 
   402)     72823.0  Rx     14320501  8  15 4A 00 55 00 AA 2B 03 
   403)     72823.6  Rx     14321001  8  00 00 00 00 00 64 00 00 
   404)     72824.1  Rx     14320601  8  12 5C 16 44 12 5C 16 44 
   405)     72846.7  Rx     1C105000  0  
   406)     73822.0  Rx     14320101  8  00 40 12 C1 00 14 00 00 
   407)     73822.4  Rx     09508A00  6  53 89 42 3C 0B 72 
   408)     73823.0  Rx     14320601  8  12 5C 16 44 12 5C 16 44 
   409)     73823.6  Rx     14321001  8  00 00 00 00 00 66 00 00 
   410)     73824.1  Rx     14320501  8  15 4A 00 55 00 AA 2B 03 
   411)     73825.5  Rx     08508A00  1  00 
   412)     73846.2  Rx     1C105000  0  
   413)     74821.5  Rx     14320101  8  00 40 12 C1 00 14 00 00 
   414)     74822.0  Rx     14320501  8  15 4A 00 55 00 AA 2B 03 
   415)     74822.6  Rx     14321001  8  00 00 00 00 00 68 00 00 
   416)     74823.2  Rx     14320601  8  12 5C 16 44 12 5C 16 44 
   417)     74845.7  Rx     1C105000  0  
   418)     74846.0  Rx     00102000  0  
   419)     75821.0  Rx     14320101  8  00 40 12 C1 00 14 00 00 
   420)     75821.4  Rx     09508A00  6  53 89 42 3C 0B 72 
   421)     75821.9  Rx     14320601  8  12 5C 16 44 12 5C 16 44 
   422)     75822.5  Rx     14321001  8  00 00 00 00 00 6A 00 00 
   423)     75823.1  Rx     14320501  8  15 4A 00 55 00 AA 2B 03 
   424)     75824.5  Rx     08508A00  1  00 
   425)     75845.2  Rx     1C105000  0  
   426)     76820.5  Rx     14320101  8  00 40 12 C1 00 14 00 00 
   427)     76821.0  Rx     14320501  8  15 4A 00 55 00 AA 2B 03 
   428)     76821.6  Rx     14321001  8  00 00 00 00 00 6C 00 00 
   429)     76822.1  Rx     14320601  8  12 5C 16 44 12 5C 16 44 
   430)     76844.7  Rx     1C105000  0  
   431)     77820.1  Rx     14320101  8  00 40 12 C1 00 14 00 00 
   432)     77820.5  Rx     09508A00  6  53 89 42 3C 0B 72 
   433)     77821.1  Rx     14320601  8  12 5C 16 44 12 5C 16 44 
   434)     77821.7  Rx     14321001  8  00 00 00 00 00 6E 00 00 
   435)     77822.2  Rx     14320501  8  15 4A 00 55 00 AA 2B 03 
   436)     77823.6  Rx     08508A00  1  00 
   437)     77844.3  Rx     1C105000  0  
   438)     78819.6  Rx     14320101  8  00 40 12 C1 00 14 00 00 
   439)     78820.1  Rx     14320501  8  15 4A 00 55 00 AA 2B 03 
   440)     78820.7  Rx     14321001  8  00 00 00 00 00 70 00 00 
   441)     78821.2  Rx     14320601  8  12 5C 16 44 12 5C 16 44 
   442)     78843.8  Rx     1C105000  0  
   443)     79819.0  Rx     14320101  8  00 40 12 C1 00 14 00 00 
   444)     79819.5  Rx     09508A00  6  53 89 42 3C 0B 72 
   445)     79820.1  Rx     14320601  8  12 5C 16 44 12 5C 16 44 
   446)     79820.7  Rx     14321001  8  00 00 00 00 00 72 00 00 
   447)     79820.9  Rx     08F08B00  0  
   448)     79821.5  Rx     14320501  8  15 4A 00 55 00 AA 2B 03 
   449)     79822.6  Rx     08508A00  1  00 
   450)     79843.3  Rx     1C105000  0  
   451)     79843.6  Rx     00102000  0  
   452)     80818.5  Rx     14320101  8  00 40 12 C1 00 14 00 00 
   453)     80819.1  Rx     14320501  8  15 4A 00 55 00 AA 2B 03 
   454)     80819.6  Rx     14321001  8  00 00 00 00 00 74 00 00 
   455)     80820.2  Rx     14320601  8  12 5C 16 44 12 5C 16 44 
   456)     80842.7  Rx     1C105000  0  
   457)     81818.1  Rx     14320101  8  00 40 12 C1 00 14 00 00 
   458)     81818.6  Rx     09508A00  6  53 89 42 3C 0B 72 
   459)     81819.1  Rx     14320601  8  12 5C 16 44 12 5C 16 44 
   460)     81819.7  Rx     14321001  8  00 00 00 00 00 76 00 00 
   461)     81819.9  Rx     08708B00  0  
   462)     81820.5  Rx     14320501  8  15 4A 00 55 00 AA 2B 03 
   463)     81821.6  Rx     08508A00  1  00 
   464)     81842.2  Rx     1C105000  0  
   465)     82817.6  Rx     14320101  8  00 40 12 C1 00 14 00 00 
   466)     82818.2  Rx     14320501  8  15 4A 00 55 00 AA 2B 03 
   467)     82818.8  Rx     14321001  8  00 00 00 00 00 78 00 00 
   468)     82819.3  Rx     14320601  8  12 5C 16 44 12 5C 16 44 
   469)     82841.8  Rx     1C105000  0  
   470)     83817.2  Rx     14320101  8  00 40 12 C1 00 14 00 00 
   471)     83817.7  Rx     09508A00  6  53 89 42 3C 0B 72 
   472)     83818.2  Rx     14320601  8  12 5C 16 44 12 5C 16 44 
   473)     83818.8  Rx     14321001  8  00 00 00 00 00 7A 00 00 
   474)     83819.3  Rx     14320501  8  15 4A 00 55 00 AA 2B 03 
   475)     83820.7  Rx     08508A00  1  00 
   476)     83841.4  Rx     1C105000  0  
   477)     84816.7  Rx     14320101  8  00 40 12 C1 00 14 00 00 
   478)     84817.2  Rx     14320501  8  15 4A 00 55 00 AA 2B 03 
   479)     84817.8  Rx     14321001  8  00 00 00 00 00 7C 00 00 
   480)     84818.4  Rx     14320601  8  12 5C 16 44 12 5C 16 44 
   481)     84840.9  Rx     1C105000  0  
   482)     84841.2  Rx     00102000  0  
   483)     85816.2  Rx     14320101  8  00 40 12 C1 00 14 00 00 
   484)     85816.6  Rx     09508A00  6  53 89 42 3C 0B 72 
   485)     85817.2  Rx     14320601  8  12 5C 16 44 12 5C 16 44 
   486)     85817.8  Rx     14321001  8  00 00 00 00 00 7E 00 00 
   487)     85818.4  Rx     14320501  8  15 4A 00 55 00 AA 2B 03 
   488)     85819.7  Rx     08508A00  1  00 
   489)     85840.4  Rx     1C105000  0  
   490)     86815.7  Rx     14320101  8  00 40 12 C1 00 14 00 00 
   491)     86816.3  Rx     14320501  8  15 4A 00 55 00 AA 2B 03 
   492)     86816.9  Rx     14321001  8  00 00 00 00 00 80 00 00 
   493)     86817.4  Rx     14324001  8  00 00 00 0A 00 CD 9D 5F 
   494)     86818.0  Rx     14320601  8  12 5C 16 44 12 5C 16 44 
   495)     86840.0  Rx     1C105000  0  
   496)     87815.3  Rx     14320101  8  00 40 12 C1 00 14 00 00 
   497)     87815.8  Rx     09508A00  6  53 89 42 3C 0B 72 
   498)     87816.3  Rx     14320601  8  12 5C 16 44 12 5C 16 44 
   499)     87816.9  Rx     14321001  8  00 00 00 00 00 82 00 00 
   500)     87817.5  Rx     14320501  8  15 4A 00 55 00 AA 2B 03 
   501)     87818.8  Rx     08508A00  1  00 
   502)     87839.5  Rx     1C105000  0  
   503)     88814.8  Rx     14320101  8  00 40 12 C1 00 14 00 00 
   504)     88815.3  Rx     14320501  8  15 4A 00 55 00 AA 2B 03 
   505)     88815.9  Rx     14321001  8  00 00 00 00 00 84 00 00 
   506)     88816.5  Rx     14320601  8  12 5C 16 44 12 5C 16 44 
   507)     88839.0  Rx     1C105000  0  
   508)     89814.5  Rx     14320101  8  00 40 12 C1 00 14 00 00 
   509)     89814.9  Rx     09508A00  6  53 89 42 3C 0B 72 
   510)     89815.5  Rx     14320601  8  12 5C 16 44 12 5C 16 44 
   511)     89816.1  Rx     14321001  8  00 00 00 00 00 86 00 00 
   512)     89816.4  Rx     08F08B00  0  
   513)     89816.9  Rx     14320501  8  15 4A 00 55 00 AA 2B 03 
   514)     89818.1  Rx     08508A00  1  00 
   515)     89838.7  Rx     1C105000  0  
   516)     89839.0  Rx     00102000  0  
   517)     90814.4  Rx     14320101  8  00 40 12 C1 00 14 00 00 
   518)     90815.0  Rx     14320501  8  15 4A 00 55 00 AA 2B 03 
   519)     90815.5  Rx     14321001  8  00 00 00 00 00 88 00 00 
   520)     90816.1  Rx     14320601  8  12 5C 16 44 12 5C 16 44 
   521)     90838.6  Rx     1C105000  0  
