;$FILEVERSION=1.1
;$STARTTIME=46018.8218169444
;
;   /Users/maxim.anurin/w-own/me/obsolete-jekyll/content/_uk-UA/weekend-project-2025-10-18-connecting-a-generator-to-a-solar-inverter.files/CAN-dumps/20251227214324_PCAN_USBBUS1.trc
;
;   Start time: 27/12/2025 21:43:24.983.9
;   PCAN-Channel: PCAN_USBBUS1
;   Driver version: PCBUSB 0.13.0.1978 - (IOUSBKit, x86_64)
;   Generated by PCBUSB API, version 4.9.0.1
;
;   Message Number
;   |         Time Offset (ms)
;   |         |        Type
;   |         |        |        ID (hex)
;   |         |        |        |     Data Length Code
;   |         |        |        |     |   Data Bytes (hex) ...
;   |         |        |        |     |   |
;---+--   ----+----  --+--  ----+---  +  -+ -- -- -- -- -- -- --
     1)     14900.3  Rx     08508A00  1  10 
     2)     14900.6  Rx     08508A00  1  10 
     3)     14901.0  Rx     08508A00  1  10 
     4)     14901.3  Rx     08508A00  1  10 
     5)     14901.6  Rx     08508A00  1  10 
     6)     14901.9  Rx     08508A00  1  10 
     7)     14902.2  Rx     08508A00  1  10 
     8)     14902.6  Rx     08508A00  1  10 
     9)     14902.9  Rx     08508A00  1  10 
    10)     14903.2  Rx     08508A00  1  10 
    11)     14903.5  Rx     08508A00  1  10 
    12)     14903.8  Rx     08508A00  1  10 
    13)     14904.1  Rx     08508A00  1  10 
    14)     14904.4  Rx     08508A00  1  10 
    15)     14904.8  Rx     08508A00  1  10 
    16)     14905.1  Rx     08508A00  1  10 
    17)     15300.4  Rx     08508A00  1  10 
    18)     15300.7  Rx     08508A00  1  10 
    19)     15301.0  Rx     08508A00  1  10 
    20)     15301.3  Rx     08508A00  1  10 
    21)     15302.5  Rx     08508A00  1  10 
    22)     15302.8  Rx     08508A00  1  10 
    23)     15303.1  Rx     08508A00  1  10 
    24)     15304.4  Rx     08508A00  1  10 
    25)     15304.7  Rx     08508A00  1  10 
    26)     15305.1  Rx     08508A00  1  10 
    27)     15305.4  Rx     08508A00  1  10 
    28)     15306.4  Rx     08508A00  1  10 
    29)     15306.8  Rx     08508A00  1  10 
    30)     15307.1  Rx     08508A00  1  10 
    31)     15307.4  Rx     08508A00  1  10 
    32)     15308.5  Rx     08508A00  1  10 
    33)     15308.8  Rx     08508A00  1  00 
    34)     15309.1  Rx     08508A00  1  00 
    35)     15309.4  Rx     08508A00  1  00 
    36)     15309.8  Rx     08508A00  1  00 
    37)     15373.7  Rx     08508A00  1  00 
    38)     15374.0  Rx     08508A00  1  00 
    39)     15374.6  Rx     14320101  8  00 40 7F FF FF FF FF FF 
    40)     15523.7  Rx     08508A00  1  00 
    41)     15524.0  Rx     08508A00  1  00 
    42)     15553.5  Rx     08508A00  1  00 
    43)     15553.8  Rx     08508A00  1  00 
    44)     15554.1  Rx     08508A00  1  00 
    45)     15554.4  Rx     08508A00  1  00 
    46)     15554.8  Rx     08508A00  1  00 
    47)     15555.1  Rx     08508A00  1  00 
    48)     15555.4  Rx     08508A00  1  00 
    49)     15555.7  Rx     08508A00  1  00 
    50)     15556.0  Rx     08508A00  1  00 
    51)     15556.3  Rx     08508A00  1  00 
    52)     15557.8  Rx     08508A00  1  00 
    53)     15558.1  Rx     08508A00  1  00 
    54)     15558.4  Rx     08508A00  1  00 
    55)     15558.7  Rx     08508A00  1  00 
    56)     15559.0  Rx     08508A00  1  00 
    57)     15559.4  Rx     08508A00  1  00 
    58)     15559.7  Rx     08508A00  1  00 
    59)     15560.0  Rx     08508A00  1  00 
    60)     15560.3  Rx     08508A00  1  00 
    61)     15560.7  Rx     08508A00  1  00 
    62)     15561.0  Rx     08508A00  1  00 
    63)     15561.3  Rx     08508A00  1  00 
    64)     15624.5  Rx     08508A00  1  00 
    65)     15625.8  Rx     08508A00  1  00 
    66)     15626.1  Rx     08508A00  1  00 
    67)     15626.6  Rx     14320101  8  00 40 7F FF FF FF FF FF 
    68)     15627.3  Rx     14320101  8  00 40 7F FF FF FF FF FF 
    69)     15627.8  Rx     14320101  8  00 40 7F FF FF FF FF FF 
    70)     15775.9  Rx     08508A00  1  00 
    71)     15776.2  Rx     08508A00  1  00 
    72)     15804.1  Rx     08508A00  1  00 
    73)     15804.4  Rx     08508A00  1  00 
    74)     15898.0  Rx     00102000  0  
    75)     16894.2  Rx     1C105000  0  
    76)     17838.7  Rx     08508A00  1  00 
    77)     17893.8  Rx     1C105000  0  
    78)     18869.2  Rx     14320101  8  00 40 12 C1 00 14 00 00 
    79)     18869.8  Rx     14320501  8  15 4A 00 00 00 00 0B 02 
    80)     18870.4  Rx     14320601  8  12 5C 16 44 12 5C 16 44 
    81)     18893.3  Rx     1C105000  0  
    82)     19868.6  Rx     14320101  8  00 40 12 C3 00 14 00 00 
    83)     19869.1  Rx     14320501  8  15 4A 00 00 00 00 0B 02 
    84)     19869.7  Rx     14321001  8  00 00 00 00 00 02 00 00 
    85)     19870.0  Rx     08508A00  1  00 
    86)     19870.6  Rx     14320601  8  12 5C 16 44 12 5C 16 44 
    87)     19892.8  Rx     1C105000  0  
    88)     20868.6  Rx     14320101  8  00 40 12 C1 00 14 00 00 
    89)     20869.2  Rx     14320501  8  15 4A 00 00 00 00 0B 02 
    90)     20869.7  Rx     14321001  8  00 00 00 00 00 04 00 00 
    91)     20870.1  Rx     08508A00  1  00 
    92)     20870.4  Rx     08508A00  1  00 
    93)     20870.9  Rx     14320601  8  12 5C 16 44 12 5C 16 44 
    94)     20892.5  Rx     1C105000  0  
    95)     20892.8  Rx     00102000  0  
    96)     21867.8  Rx     14320101  8  00 40 12 C1 00 14 00 00 
    97)     21868.2  Rx     09508A00  6  52 CB 42 3C 0B 72 
    98)     21868.8  Rx     14320601  8  12 5C 16 44 12 5C 16 44 
    99)     21869.3  Rx     14321001  8  00 00 00 00 00 06 00 00 
   100)     21869.9  Rx     14320501  8  15 4A 00 00 00 00 0B 02 
   101)     21892.0  Rx     1C105000  0  
   102)     22867.2  Rx     14320101  8  00 40 12 C1 00 14 00 00 
   103)     22867.8  Rx     14320501  8  15 4A 00 55 00 AA 2B 02 
   104)     22868.4  Rx     14321001  8  00 00 00 00 00 08 00 00 
   105)     22868.7  Rx     08508A00  1  00 
   106)     22869.0  Rx     08508A00  1  00 
   107)     22869.6  Rx     14324001  8  00 00 00 57 00 CD 9E 3F 
   108)     22870.1  Rx     14320601  8  12 5C 16 44 12 5C 16 44 
   109)     22891.5  Rx     1C105000  0  
   110)     23866.7  Rx     14320101  8  00 40 12 C1 00 14 00 00 
   111)     23867.2  Rx     09508A00  6  52 D3 42 3C 0B 72 
   112)     23867.8  Rx     14320601  8  12 5C 16 44 12 5C 16 44 
   113)     23868.3  Rx     14321001  8  00 00 00 00 00 0A 00 00 
   114)     23868.9  Rx     14320501  8  15 4A 00 55 00 AA 2B 02 
   115)     23891.0  Rx     1C105000  0  
   116)     24866.3  Rx     14320101  8  00 40 12 C3 00 14 00 00 
   117)     24866.8  Rx     14320501  8  15 4A 00 55 00 AA 2B 02 
   118)     24867.4  Rx     14321001  8  00 00 00 00 00 0C 00 00 
   119)     24867.9  Rx     14320601  8  12 5C 16 44 12 5C 16 44 
   120)     24873.8  Rx     08508A00  1  00 
   121)     24890.5  Rx     1C105000  0  
   122)     25865.8  Rx     14320101  8  00 40 12 C3 00 14 00 00 
   123)     25866.3  Rx     09508A00  6  52 DB 42 3C 0B 72 
   124)     25866.8  Rx     14320601  8  12 5C 16 44 12 5C 16 44 
   125)     25867.1  Rx     08F08B00  0  
   126)     25867.7  Rx     14321001  8  00 00 00 00 00 0E 00 00 
   127)     25868.2  Rx     14320501  8  15 4A 00 55 00 AA 2B 02 
   128)     25890.0  Rx     1C105000  0  
   129)     25890.3  Rx     00102000  0  
   130)     26865.3  Rx     14320101  8  00 40 12 C1 00 14 00 00 
   131)     26865.9  Rx     14320501  8  15 4A 00 55 00 AA 2B 02 
   132)     26866.5  Rx     14321001  8  00 00 00 00 00 10 00 00 
   133)     26867.0  Rx     14320601  8  12 5C 16 44 12 5C 16 44 
   134)     26876.9  Rx     08508A00  1  00 
   135)     26889.6  Rx     1C105000  0  
   136)     27864.8  Rx     14320101  8  00 40 12 C1 00 14 00 00 
   137)     27865.3  Rx     09508A00  6  52 E3 42 3C 0B 72 
   138)     27865.8  Rx     14320601  8  12 5C 16 44 12 5C 16 44 
   139)     27866.1  Rx     08708B00  0  
   140)     27866.4  Rx     08508A00  1  00 
   141)     27866.8  Rx     08508A00  1  00 
   142)     27867.3  Rx     14321001  8  00 00 00 00 00 12 00 00 
   143)     27867.9  Rx     14320501  8  15 4A 00 55 00 AA 2B 02 
   144)     27889.1  Rx     1C105000  0  
   145)     28313.0  Rx     1A001000  0  
   146)     28408.8  Rx     1A102000  0  
   147)     28409.3  Rx     0200DBFB  0  
   148)     28508.8  Rx     1A102100  0  
   149)     28509.2  Rx     02010200  0  
   150)     28608.7  Rx     1A102200  0  
   151)     28609.2  Rx     020203A0  0  
   152)     28708.6  Rx     1A102300  0  
   153)     28709.2  Rx     020300DC  0  
   154)     28808.6  Rx     1A103000  0  
   155)     28809.0  Rx     1B4031FF  0  
   156)     28809.5  Rx     1B503201  0  
   157)     28828.6  Rx     1A102000  0  
   158)     28864.3  Rx     14320101  8  00 40 12 C3 00 14 00 00 
   159)     28864.9  Rx     14320501  8  15 4A 00 55 00 AA 2B 02 
   160)     28865.5  Rx     14321001  8  00 00 00 00 00 14 00 00 
   161)     28866.0  Rx     14320601  8  12 5C 16 44 12 5C 16 44 
   162)     28888.6  Rx     1C105000  0  
   163)     28889.0  Rx     1D504001  2  59 D2 
   164)     28893.1  Rx     1D404101  2  20 01 
   165)     28928.8  Rx     19502001  2  59 D2 
   166)     28929.5  Rx     19402101  2  DA AA 
   167)     28929.9  Rx     19503001  0  
   168)     28933.3  Rx     19403101  0  
   169)     28934.3  Rx     19544001  8  00 20 00 01 0B B8 01 2C 
   170)     29028.3  Rx     194C4001  0  
   171)     29028.9  Rx     19584001  8  00 01 54 E6 41 DB 08 02 
   172)     29129.6  Rx     194C4001  0  
   173)     29130.3  Rx     19584001  8  54 E6 41 DB 08 02 00 00 
   174)     29227.6  Rx     194C4001  0  
   175)     29228.2  Rx     195C4001  8  17 70 83 20 83 84 57 3E 
   176)     29325.6  Rx     194C4001  0  
   177)     29326.1  Rx     19502001  2  59 D2 
   178)     29326.9  Rx     19402101  2  DA AA 
   179)     29863.9  Rx     14320101  8  00 40 12 C1 00 14 00 00 
   180)     29864.4  Rx     09508A00  6  52 EB 42 3C 0B 72 
   181)     29864.9  Rx     14320601  8  12 5C 16 44 12 5C 16 44 
   182)     29865.5  Rx     14321001  8  00 00 00 00 00 16 00 00 
   183)     29866.1  Rx     14320501  8  15 4A 00 55 00 AA 2B 02 
   184)     29867.4  Rx     08508A00  1  00 
   185)     29888.1  Rx     1C105000  0  
   186)     29888.5  Rx     19502001  2  59 D2 
   187)     29888.8  Rx     1D504001  2  59 D2 
   188)     30002.8  Rx     1A001000  0  
   189)     30102.9  Rx     1A102000  0  
   190)     30103.5  Rx     0200DBFB  0  
   191)     30202.9  Rx     1A102100  0  
   192)     30203.4  Rx     02010200  0  
   193)     30302.9  Rx     1A102200  0  
   194)     30303.4  Rx     020203A0  0  
   195)     30402.8  Rx     1A102300  0  
   196)     30403.2  Rx     020300DC  0  
   197)     30502.7  Rx     1A103000  0  
   198)     30503.5  Rx     1B4031FF  0  
   199)     30504.2  Rx     1B503201  0  
   200)     30522.7  Rx     1A102000  0  
   201)     30622.9  Rx     19502001  2  59 D2 
   202)     30623.7  Rx     19402101  2  DA AA 
   203)     30624.1  Rx     19503001  0  
   204)     30624.7  Rx     19403101  0  
   205)     30625.7  Rx     19544001  8  00 20 00 01 0B B8 01 2C 
   206)     30723.2  Rx     194C4001  0  
   207)     30723.8  Rx     19584001  8  00 01 54 E6 41 DB 08 02 
   208)     30818.0  Rx     194C4001  0  
   209)     30818.6  Rx     19584001  8  54 E6 41 DB 08 02 00 00 
   210)     30863.4  Rx     14320101  8  00 40 12 C1 00 0A 00 00 
   211)     30863.9  Rx     14320501  8  15 4A 00 55 00 AA 2B 02 
   212)     30864.5  Rx     14321001  8  00 00 00 00 00 17 00 00 
   213)     30865.1  Rx     14320601  8  12 5C 16 44 12 5C 16 44 
   214)     30887.6  Rx     1C105000  0  
   215)     30888.0  Rx     1D504001  2  59 D2 
   216)     30888.8  Rx     1D404101  2  23 01 
   217)     30913.0  Rx     194C4001  0  
   218)     30913.7  Rx     195C4001  8  17 70 83 20 83 84 57 3E 
   219)     31011.2  Rx     194C4001  0  
   220)     31011.7  Rx     19502001  2  59 D2 
   221)     31012.5  Rx     19402101  2  DA AA 
   222)     31712.6  Rx     1A001000  0  
   223)     31812.1  Rx     1A102000  0  
   224)     31812.7  Rx     0200DBFB  0  
   225)     31862.9  Rx     14320101  8  00 40 12 C1 00 12 00 00 
   226)     31863.4  Rx     09508A00  6  52 F4 42 3C 0B 72 
   227)     31863.9  Rx     14320601  8  12 5C 16 44 12 5C 16 44 
   228)     31864.5  Rx     14321001  8  00 00 00 00 00 18 00 00 
   229)     31865.1  Rx     14320501  8  15 4A 00 55 00 AA 2B 02 
   230)     31870.8  Rx     08508A00  1  00 
   231)     31887.1  Rx     1C105000  0  
   232)     31887.5  Rx     19502001  2  59 D2 
   233)     31887.8  Rx     1D504001  2  59 D2 
   234)     31912.1  Rx     1A102100  0  
   235)     31912.7  Rx     02010200  0  
   236)     32012.1  Rx     1A102200  0  
   237)     32012.7  Rx     020203A0  0  
   238)     32112.0  Rx     1A102300  0  
   239)     32112.7  Rx     020300DC  0  
   240)     32212.0  Rx     1A103000  0  
   241)     32212.6  Rx     1B4031FF  0  
   242)     32213.0  Rx     1B503201  0  
   243)     32231.9  Rx     1A102000  0  
   244)     32332.1  Rx     19502001  2  59 D2 
   245)     32332.9  Rx     19402101  2  DA AA 
   246)     32333.3  Rx     19503001  0  
   247)     32334.0  Rx     19403101  0  
   248)     32335.0  Rx     19544001  8  00 20 00 01 0B B8 01 2C 
   249)     32429.1  Rx     194C4001  0  
   250)     32429.7  Rx     19584001  8  00 01 54 E6 41 DB 08 02 
   251)     32527.1  Rx     194C4001  0  
   252)     32527.8  Rx     19584001  8  54 E6 41 DB 08 02 00 00 
   253)     32625.1  Rx     194C4001  0  
   254)     32625.8  Rx     195C4001  8  17 70 83 20 83 84 57 3E 
   255)     32723.2  Rx     194C4001  0  
   256)     32723.7  Rx     19502001  2  59 D2 
   257)     32724.5  Rx     19402101  2  DA AA 
   258)     32862.5  Rx     14320101  8  00 40 12 C1 00 12 00 00 
   259)     32863.0  Rx     14320501  8  15 4A 00 55 00 AA 2B 02 
   260)     32863.6  Rx     14321001  8  00 00 00 00 00 19 00 00 
   261)     32864.1  Rx     14320601  8  12 5C 16 44 12 5C 16 44 
   262)     32886.6  Rx     1C105000  0  
   263)     32887.0  Rx     1D504001  2  59 D2 
   264)     33862.0  Rx     14320101  8  00 40 12 C3 00 12 00 00 
   265)     33862.5  Rx     09508A00  6  52 FD 42 3C 0B 72 
   266)     33863.0  Rx     14320601  8  12 5C 16 44 12 5C 16 44 
   267)     33863.6  Rx     14321001  8  00 00 00 00 00 1A 00 00 
   268)     33864.1  Rx     14320501  8  15 4A 00 55 00 AA 2B 02 
   269)     33873.6  Rx     08508A00  1  00 
   270)     33886.2  Rx     1C105000  0  
   271)     33886.5  Rx     1D504001  2  59 D2 
   272)     34861.6  Rx     14320101  8  00 40 12 C1 00 12 00 00 
   273)     34862.1  Rx     14320501  8  15 4A 00 55 00 AA 2B 02 
   274)     34862.7  Rx     14321001  8  00 00 00 00 00 1B 00 00 
   275)     34863.2  Rx     14320601  8  12 5C 16 44 12 5C 16 44 
   276)     34885.8  Rx     1C105000  0  
   277)     34886.1  Rx     1D504001  2  59 D2 
   278)     34905.8  Rx     01503001  0  
   279)     35861.0  Rx     14320101  8  00 40 12 C1 FF F9 00 07 
   280)     35861.5  Rx     09508A00  6  53 0D 42 3C 0B 72 
   281)     35862.1  Rx     14320601  8  12 5C 16 44 12 5C 16 44 
   282)     35862.4  Rx     08F08B00  0  
   283)     35862.9  Rx     14321001  8  00 00 00 00 00 1B 00 00 
   284)     35863.5  Rx     14320501  8  15 4A 00 55 00 AA 2B 02 
   285)     35884.1  Rx     08508A00  1  00 
   286)     35885.3  Rx     1C105000  0  
   287)     36860.5  Rx     14320101  8  00 40 12 C1 00 01 00 00 
   288)     36861.1  Rx     14320501  8  15 4A 00 55 00 AA 2B 02 
   289)     36861.6  Rx     14321001  8  00 00 00 00 00 1B 00 00 
   290)     36862.2  Rx     14320601  8  12 5C 16 44 12 5C 16 44 
   291)     36884.8  Rx     1C105000  0  
   292)     37860.0  Rx     14320101  8  00 40 12 C1 00 14 00 00 
   293)     37860.5  Rx     09508A00  6  53 15 42 3C 0B 72 
   294)     37861.0  Rx     14320601  8  12 5C 16 44 12 5C 16 44 
   295)     37861.3  Rx     08708B00  0  
   296)     37861.9  Rx     14321001  8  00 00 00 00 00 1D 00 00 
   297)     37862.4  Rx     14320501  8  15 4A 00 55 00 AA 2B 02 
   298)     37884.3  Rx     1C105000  0  
   299)     37891.2  Rx     08508A00  1  00 
   300)     38859.6  Rx     14320101  8  00 40 12 C3 00 14 00 00 
   301)     38860.1  Rx     14320501  8  15 4A 00 55 00 AA 2B 02 
   302)     38860.7  Rx     14321001  8  00 00 00 00 00 1F 00 00 
   303)     38861.3  Rx     14320601  8  12 5C 16 44 12 5C 16 44 
   304)     38883.8  Rx     1C105000  0  
   305)     39859.0  Rx     14320101  8  00 40 12 C1 00 35 00 00 
   306)     39859.5  Rx     09508A00  6  53 1A 42 3C 0B 72 
   307)     39860.0  Rx     14320601  8  12 5C 16 44 12 5C 16 44 
   308)     39860.6  Rx     14321001  8  00 00 00 00 00 24 00 00 
   309)     39861.2  Rx     14320501  8  15 4A 00 55 00 AA 2B 02 
   310)     39883.3  Rx     1C105000  0  
   311)     39895.6  Rx     08508A00  1  00 
   312)     40858.5  Rx     14320101  8  00 40 12 C1 00 6A 00 00 
   313)     40859.1  Rx     14320501  8  15 4A 00 55 00 AA 2B 02 
   314)     40859.7  Rx     14321001  8  00 00 00 00 00 2E 00 00 
   315)     40860.2  Rx     14320601  8  12 5C 16 44 12 5C 16 44 
   316)     40882.8  Rx     1C105000  0  
   317)     41858.1  Rx     14320101  8  00 40 12 C1 00 2B 00 00 
   318)     41858.6  Rx     09508A00  6  53 20 42 3C 0B 72 
   319)     41859.2  Rx     14320601  8  12 5C 16 44 12 5C 16 44 
   320)     41859.7  Rx     14321001  8  00 00 00 00 00 32 00 00 
   321)     41860.3  Rx     14320501  8  15 4A 00 55 00 AA 2B 02 
   322)     41882.4  Rx     1C105000  0  
   323)     41899.6  Rx     08508A00  1  00 
   324)     42857.6  Rx     14320101  8  00 40 12 C1 00 14 00 00 
   325)     42858.2  Rx     14320501  8  15 4A 00 55 00 AA 2B 02 
   326)     42858.8  Rx     14321001  8  00 00 00 00 00 34 00 00 
   327)     42859.3  Rx     14320601  8  12 5C 16 44 12 5C 16 44 
   328)     42881.9  Rx     1C105000  0  
   329)     43857.4  Rx     14320101  8  00 40 12 C1 00 14 00 00 
   330)     43857.8  Rx     09508A00  6  53 28 42 3C 0B 72 
   331)     43858.3  Rx     14320601  8  12 5C 16 44 12 5C 16 44 
   332)     43858.9  Rx     14321001  8  00 00 00 00 00 36 00 00 
   333)     43859.5  Rx     14320501  8  15 4A 00 55 00 AA 2B 02 
   334)     43881.6  Rx     1C105000  0  
   335)     43903.9  Rx     08508A00  1  00 
   336)     44856.9  Rx     14320101  8  00 40 12 C1 00 14 00 00 
   337)     44857.5  Rx     14320501  8  15 4A 00 55 00 AA 2B 02 
   338)     44858.1  Rx     14321001  8  00 00 00 00 00 38 00 00 
   339)     44858.6  Rx     14320601  8  12 5C 16 44 12 5C 16 44 
   340)     44881.2  Rx     1C105000  0  
   341)     45856.5  Rx     14320101  8  00 40 12 C1 00 14 00 00 
   342)     45857.0  Rx     09508A00  6  53 30 42 3C 0B 72 
   343)     45857.5  Rx     14320601  8  12 5C 16 44 12 5C 16 44 
   344)     45857.8  Rx     08F08B00  0  
   345)     45858.4  Rx     14321001  8  00 00 00 00 00 3A 00 00 
   346)     45858.9  Rx     14320501  8  15 4A 00 55 00 AA 2B 02 
   347)     45880.8  Rx     1C105000  0  
   348)     45903.7  Rx     08508A00  1  00 
   349)     46856.3  Rx     14320101  8  00 40 12 C1 00 14 00 00 
   350)     46856.9  Rx     14320501  8  15 4A 00 55 00 AA 2B 02 
   351)     46857.4  Rx     14321001  8  00 00 00 00 00 3C 00 00 
   352)     46858.0  Rx     14320601  8  12 5C 16 44 12 5C 16 44 
   353)     46880.6  Rx     1C105000  0  
   354)     47856.3  Rx     14320101  8  00 40 12 C1 00 14 00 00 
   355)     47856.8  Rx     09508A00  6  53 38 42 3C 0B 72 
   356)     47857.4  Rx     14320601  8  12 5C 16 44 12 5C 16 44 
   357)     47857.7  Rx     08708B00  0  
   358)     47858.3  Rx     14321001  8  00 00 00 00 00 3E 00 00 
   359)     47858.8  Rx     14320501  8  15 4A 00 55 00 AA 2B 02 
   360)     47880.6  Rx     1C105000  0  
   361)     47903.6  Rx     08508A00  1  00 
   362)     48856.0  Rx     14320101  8  00 40 12 C1 00 14 00 00 
   363)     48856.5  Rx     14320501  8  15 4A 00 55 00 AA 2B 02 
   364)     48857.1  Rx     14321001  8  00 00 00 00 00 40 00 00 
   365)     48857.7  Rx     14320601  8  12 5C 16 44 12 5C 16 44 
   366)     48880.2  Rx     1C105000  0  
   367)     49855.8  Rx     14320101  8  00 40 12 C1 00 14 00 00 
   368)     49856.3  Rx     09508A00  6  53 40 42 3C 0B 72 
   369)     49856.8  Rx     14320601  8  12 5C 16 44 12 5C 16 44 
   370)     49857.4  Rx     14321001  8  00 00 00 00 00 42 00 00 
   371)     49858.0  Rx     14320501  8  15 4A 00 55 00 AA 2B 03 
   372)     49880.1  Rx     1C105000  0  
   373)     49903.1  Rx     08508A00  1  00 
   374)     50855.9  Rx     14320101  8  00 40 12 C1 00 14 00 00 
   375)     50856.5  Rx     14320501  8  15 4A 00 55 00 AA 2B 03 
   376)     50857.1  Rx     14321001  8  00 00 00 00 00 44 00 00 
   377)     50857.6  Rx     14320601  8  12 5C 16 44 12 5C 16 44 
   378)     50880.2  Rx     1C105000  0  
   379)     51855.5  Rx     14320101  8  00 40 12 C1 00 14 00 00 
   380)     51856.0  Rx     09508A00  6  53 48 42 3C 0B 72 
   381)     51856.5  Rx     14320601  8  12 5C 16 44 12 5C 16 44 
   382)     51857.1  Rx     14321001  8  00 00 00 00 00 46 00 00 
   383)     51857.7  Rx     14320501  8  15 4A 00 55 00 AA 2B 03 
   384)     51879.8  Rx     1C105000  0  
   385)     51902.7  Rx     08508A00  1  00 
   386)     52855.2  Rx     14320101  8  00 40 12 C1 00 14 00 00 
   387)     52855.7  Rx     14320501  8  15 4A 00 55 00 AA 2B 03 
   388)     52856.3  Rx     14321001  8  00 00 00 00 00 48 00 00 
   389)     52856.9  Rx     14320601  8  12 5C 16 44 12 5C 16 44 
   390)     52879.4  Rx     1C105000  0  
   391)     53854.7  Rx     14320101  8  00 40 12 C1 00 14 00 00 
   392)     53855.2  Rx     09508A00  6  53 50 42 3C 0B 72 
   393)     53855.7  Rx     14320601  8  12 5C 16 44 12 5C 16 44 
   394)     53856.3  Rx     14321001  8  00 00 00 00 00 4A 00 00 
   395)     53856.9  Rx     14320501  8  15 4A 00 55 00 AA 2B 03 
   396)     53878.9  Rx     1C105000  0  
   397)     53901.9  Rx     08508A00  1  00 
   398)     54854.2  Rx     14320101  8  00 40 12 C1 00 14 00 00 
   399)     54854.7  Rx     14320501  8  15 4A 00 55 00 AA 2B 03 
   400)     54855.3  Rx     14321001  8  00 00 00 00 00 4C 00 00 
   401)     54855.8  Rx     14320601  8  12 5C 16 44 12 5C 16 44 
   402)     54878.4  Rx     1C105000  0  
   403)     55853.7  Rx     14320101  8  00 40 12 C1 00 14 00 00 
   404)     55854.2  Rx     09508A00  6  53 58 42 3C 0B 72 
   405)     55854.7  Rx     14320601  8  12 5C 16 44 12 5C 16 44 
   406)     55855.0  Rx     08F08B00  0  
   407)     55855.6  Rx     14321001  8  00 00 00 00 00 4E 00 00 
   408)     55856.2  Rx     14320501  8  15 4A 00 55 00 AA 2B 03 
   409)     55877.9  Rx     1C105000  0  
   410)     55900.9  Rx     08508A00  1  00 
   411)     56853.2  Rx     14320101  8  00 40 12 C1 00 14 00 00 
   412)     56853.8  Rx     14320501  8  15 4A 00 55 00 AA 2B 03 
   413)     56854.4  Rx     14321001  8  00 00 00 00 00 50 00 00 
   414)     56854.9  Rx     14320601  8  12 5C 16 44 12 5C 16 44 
   415)     56877.5  Rx     1C105000  0  
   416)     57852.8  Rx     14320101  8  00 40 12 C1 00 14 00 00 
   417)     57853.3  Rx     09508A00  6  53 60 42 3C 0B 72 
   418)     57853.9  Rx     14320601  8  12 5C 16 44 12 5C 16 44 
   419)     57854.1  Rx     08708B00  0  
   420)     57854.7  Rx     14321001  8  00 00 00 00 00 52 00 00 
   421)     57855.3  Rx     14320501  8  15 4A 00 55 00 AA 2B 03 
   422)     57877.0  Rx     1C105000  0  
   423)     57900.0  Rx     08508A00  1  00 
   424)     58852.3  Rx     14320101  8  00 40 12 C1 00 14 00 00 
   425)     58852.9  Rx     14320501  8  15 4A 00 55 00 AA 2B 03 
   426)     58853.5  Rx     14321001  8  00 00 00 00 00 54 00 00 
   427)     58854.0  Rx     14320601  8  12 5C 16 44 12 5C 16 44 
   428)     58876.6  Rx     1C105000  0  
   429)     59852.0  Rx     14320101  8  00 40 12 C1 00 14 00 00 
   430)     59852.5  Rx     09508A00  6  53 68 42 3C 0B 72 
   431)     59853.0  Rx     14320601  8  12 5C 16 44 12 5C 16 44 
   432)     59853.6  Rx     14321001  8  00 00 00 00 00 56 00 00 
   433)     59854.2  Rx     14320501  8  15 4A 00 55 00 AA 2B 03 
   434)     59876.2  Rx     1C105000  0  
   435)     59899.2  Rx     08508A00  1  00 
   436)     60851.6  Rx     14320101  8  00 40 12 C1 00 14 00 00 
   437)     60852.1  Rx     14320501  8  15 4A 00 55 00 AA 2B 03 
   438)     60852.7  Rx     14321001  8  00 00 00 00 00 58 00 00 
   439)     60853.2  Rx     14320601  8  12 5C 16 44 12 5C 16 44 
   440)     60875.8  Rx     1C105000  0  
   441)     61851.1  Rx     14320101  8  00 40 12 C1 00 14 00 00 
   442)     61851.6  Rx     09508A00  6  53 70 42 3C 0B 72 
   443)     61852.2  Rx     14320601  8  12 5C 16 44 12 5C 16 44 
   444)     61852.8  Rx     14321001  8  00 00 00 00 00 5A 00 00 
   445)     61853.3  Rx     14320501  8  15 4A 00 55 00 AA 2B 03 
   446)     61875.4  Rx     1C105000  0  
   447)     61898.3  Rx     08508A00  1  00 
   448)     62850.6  Rx     14320101  8  00 40 12 C1 00 14 00 00 
   449)     62851.2  Rx     14320501  8  15 4A 00 55 00 AA 2B 03 
   450)     62851.8  Rx     14321001  8  00 00 00 00 00 5C 00 00 
   451)     62852.3  Rx     14320601  8  12 5C 16 44 12 5C 16 44 
   452)     62874.9  Rx     1C105000  0  
   453)     63850.1  Rx     14320101  8  00 40 12 C1 00 14 00 00 
   454)     63850.6  Rx     09508A00  6  53 78 42 3C 0B 72 
   455)     63851.2  Rx     14320601  8  12 5C 16 44 12 5C 16 44 
   456)     63851.7  Rx     14321001  8  00 00 00 00 00 5E 00 00 
   457)     63852.3  Rx     14320501  8  15 4A 00 55 00 AA 2B 03 
   458)     63874.3  Rx     1C105000  0  
   459)     63897.4  Rx     08508A00  1  00 
   460)     64849.8  Rx     14320101  8  00 40 12 C1 00 14 00 00 
   461)     64850.3  Rx     14320501  8  15 4A 00 55 00 AA 2B 03 
   462)     64850.9  Rx     14321001  8  00 00 00 00 00 60 00 00 
   463)     64851.5  Rx     14320601  8  12 5C 16 44 12 5C 16 44 
   464)     64874.0  Rx     1C105000  0  
   465)     65849.4  Rx     14320101  8  00 40 12 C1 00 14 00 00 
   466)     65849.9  Rx     09508A00  6  53 80 42 3C 0B 72 
   467)     65850.4  Rx     14320601  8  12 5C 16 44 12 5C 16 44 
   468)     65850.7  Rx     08F08B00  0  
   469)     65851.3  Rx     14321001  8  00 00 00 00 00 62 00 00 
   470)     65851.9  Rx     14320501  8  15 4A 00 55 00 AA 2B 03 
   471)     65873.6  Rx     1C105000  0  
   472)     65896.7  Rx     08508A00  1  00 
   473)     66848.9  Rx     14320101  8  00 40 12 C1 00 14 00 00 
   474)     66849.5  Rx     14320501  8  15 4A 00 55 00 AA 2B 03 
   475)     66850.0  Rx     14321001  8  00 00 00 00 00 64 00 00 
   476)     66850.6  Rx     14320601  8  12 5C 16 44 12 5C 16 44 
   477)     66873.2  Rx     1C105000  0  
   478)     67848.5  Rx     14320101  8  00 40 12 C1 00 14 00 00 
   479)     67849.0  Rx     09508A00  6  53 88 42 3C 0B 72 
   480)     67849.5  Rx     14320601  8  12 5C 16 44 12 5C 16 44 
   481)     67849.8  Rx     08708B00  0  
   482)     67850.4  Rx     14321001  8  00 00 00 00 00 66 00 00 
   483)     67851.0  Rx     14320501  8  15 4A 00 55 00 AA 2B 03 
   484)     67872.8  Rx     1C105000  0  
   485)     67895.8  Rx     08508A00  1  00 
   486)     68848.3  Rx     14320101  8  00 40 12 C1 00 14 00 00 
   487)     68848.8  Rx     14320501  8  15 4A 00 55 00 AA 2B 03 
   488)     68849.4  Rx     14321001  8  00 00 00 00 00 68 00 00 
   489)     68850.0  Rx     14320601  8  12 5C 16 44 12 5C 16 44 
   490)     68872.6  Rx     1C105000  0  
   491)     69848.1  Rx     14320101  8  00 40 12 C1 00 14 00 00 
   492)     69848.6  Rx     09508A00  6  53 89 42 3C 0B 72 
   493)     69849.1  Rx     14320601  8  12 5C 16 44 12 5C 16 44 
   494)     69849.7  Rx     14321001  8  00 00 00 00 00 6A 00 00 
   495)     69850.3  Rx     14320501  8  15 4A 00 55 00 AA 2B 03 
   496)     69872.3  Rx     1C105000  0  
   497)     69895.3  Rx     08508A00  1  00 
   498)     70847.7  Rx     14320101  8  00 40 12 C1 00 14 00 00 
   499)     70848.2  Rx     14320501  8  15 4A 00 55 00 AA 2B 03 
   500)     70848.8  Rx     14321001  8  00 00 00 00 00 6C 00 00 
   501)     70849.4  Rx     14320601  8  12 5C 16 44 12 5C 16 44 
   502)     70871.8  Rx     1C105000  0  
   503)     71847.1  Rx     14320101  8  00 40 12 C1 00 14 00 00 
   504)     71847.6  Rx     09508A00  6  53 89 42 3C 0B 72 
   505)     71848.1  Rx     14320601  8  12 5C 16 44 12 5C 16 44 
   506)     71848.7  Rx     14321001  8  00 00 00 00 00 6E 00 00 
   507)     71849.3  Rx     14320501  8  15 4A 00 55 00 AA 2B 03 
   508)     71871.4  Rx     1C105000  0  
   509)     71894.3  Rx     08508A00  1  00 
   510)     72847.1  Rx     14320101  8  00 40 12 C1 00 14 00 00 
   511)     72847.7  Rx     14320501  8  15 4A 00 55 00 AA 2B 03 
   512)     72848.3  Rx     14321001  8  00 00 00 00 00 70 00 00 
   513)     72848.8  Rx     14320601  8  12 5C 16 44 12 5C 16 44 
   514)     72871.4  Rx     1C105000  0  
   515)     73847.2  Rx     14320101  8  00 40 12 C1 00 14 00 00 
   516)     73847.7  Rx     09508A00  6  53 89 42 3C 0B 72 
   517)     73848.3  Rx     14320601  8  12 5C 16 44 12 5C 16 44 
   518)     73848.8  Rx     14321001  8  00 00 00 00 00 72 00 00 
   519)     73849.4  Rx     14320501  8  15 4A 00 55 00 AA 2B 03 
   520)     73871.4  Rx     1C105000  0  
   521)     73894.4  Rx     08508A00  1  00 
   522)     74846.9  Rx     14320101  8  00 40 12 C1 00 14 00 00 
   523)     74847.4  Rx     14320501  8  15 4A 00 55 00 AA 2B 03 
   524)     74848.0  Rx     14321001  8  00 00 00 00 00 74 00 00 
   525)     74848.6  Rx     14320601  8  12 5C 16 44 12 5C 16 44 
   526)     74871.1  Rx     1C105000  0  
   527)     75846.5  Rx     14320101  8  00 40 12 C1 00 14 00 00 
   528)     75846.9  Rx     09508A00  6  53 89 42 3C 0B 72 
   529)     75847.5  Rx     14320601  8  12 5C 16 44 12 5C 16 44 
   530)     75847.8  Rx     08F08B00  0  
   531)     75848.4  Rx     14321001  8  00 00 00 00 00 76 00 00 
   532)     75848.9  Rx     14320501  8  15 4A 00 55 00 AA 2B 03 
   533)     75870.7  Rx     1C105000  0  
   534)     75893.8  Rx     08508A00  1  00 
   535)     76846.4  Rx     14320101  8  00 40 12 C1 00 14 00 00 
   536)     76846.9  Rx     14320501  8  15 4A 00 55 00 AA 2B 03 
   537)     76847.5  Rx     14321001  8  00 00 00 00 00 78 00 00 
   538)     76848.0  Rx     14320601  8  12 5C 16 44 12 5C 16 44 
   539)     76870.6  Rx     1C105000  0  
   540)     77846.0  Rx     14320101  8  00 40 12 C1 00 14 00 00 
   541)     77846.5  Rx     09508A00  6  53 89 42 3C 0B 72 
   542)     77847.0  Rx     14320601  8  12 5C 16 44 12 5C 16 44 
   543)     77847.3  Rx     08708B00  0  
   544)     77847.9  Rx     14321001  8  00 00 00 00 00 7A 00 00 
   545)     77848.4  Rx     14320501  8  15 4A 00 55 00 AA 2B 03 
   546)     77870.2  Rx     1C105000  0  
   547)     77893.2  Rx     08508A00  1  00 
   548)     78845.8  Rx     14320101  8  00 40 12 C1 00 14 00 00 
   549)     78846.4  Rx     14320501  8  15 4A 00 55 00 AA 2B 03 
   550)     78846.9  Rx     14321001  8  00 00 00 00 00 7C 00 00 
   551)     78847.5  Rx     14320601  8  12 5C 16 44 12 5C 16 44 
   552)     78870.1  Rx     1C105000  0  
   553)     79846.0  Rx     14320101  8  00 40 12 C1 00 14 00 00 
   554)     79846.4  Rx     09508A00  6  53 89 42 3C 0B 72 
   555)     79847.0  Rx     14320601  8  12 5C 16 44 12 5C 16 44 
   556)     79847.6  Rx     14321001  8  00 00 00 00 00 7E 00 00 
   557)     79848.1  Rx     14320501  8  15 4A 00 55 00 AA 2B 03 
   558)     79870.2  Rx     1C105000  0  
   559)     79893.3  Rx     08508A00  1  00 
   560)     80845.7  Rx     14320101  8  00 40 12 C1 00 14 00 00 
   561)     80846.3  Rx     14320501  8  15 4A 00 55 00 AA 2B 03 
   562)     80846.8  Rx     14321001  8  00 00 00 00 00 80 00 00 
   563)     80847.4  Rx     14320601  8  12 5C 16 44 12 5C 16 44 
   564)     80870.0  Rx     1C105000  0  
   565)     81845.5  Rx     14320101  8  00 40 12 C1 00 14 00 00 
   566)     81845.9  Rx     09508A00  6  53 89 42 3C 0B 72 
   567)     81846.5  Rx     14320601  8  12 5C 16 44 12 5C 16 44 
   568)     81847.1  Rx     14321001  8  00 00 00 00 00 82 00 00 
   569)     81847.6  Rx     14320501  8  15 4A 00 55 00 AA 2B 03 
   570)     81869.7  Rx     1C105000  0  
   571)     81892.7  Rx     08508A00  1  00 
   572)     82845.4  Rx     14320101  8  00 40 12 C1 00 14 00 00 
   573)     82846.0  Rx     14320501  8  15 4A 00 55 00 AA 2B 03 
   574)     82846.5  Rx     14321001  8  00 00 00 00 00 84 00 00 
   575)     82847.1  Rx     14320601  8  12 5C 16 44 12 5C 16 44 
   576)     82869.7  Rx     1C105000  0  
   577)     83845.2  Rx     14320101  8  00 40 12 C1 00 14 00 00 
   578)     83845.6  Rx     09508A00  6  53 89 42 3C 0B 72 
   579)     83846.2  Rx     14324001  8  00 00 00 0A 00 CD 9E 3F 
   580)     83846.8  Rx     14321001  8  00 00 00 00 00 86 00 00 
   581)     83847.3  Rx     14320601  8  12 5C 16 44 12 5C 16 44 
   582)     83847.9  Rx     14320501  8  15 4A 00 55 00 AA 2B 03 
   583)     83869.3  Rx     1C105000  0  
   584)     83892.4  Rx     08508A00  1  00 
   585)     84844.6  Rx     14320101  8  00 40 12 C1 00 14 00 00 
   586)     84845.2  Rx     14320501  8  15 4A 00 55 00 AA 2B 03 
   587)     84845.8  Rx     14321001  8  00 00 00 00 00 88 00 00 
   588)     84846.3  Rx     14320601  8  12 5C 16 44 12 5C 16 44 
   589)     84868.9  Rx     1C105000  0  
   590)     85844.2  Rx     14320101  8  00 40 12 C1 00 14 00 00 
   591)     85844.6  Rx     09508A00  6  53 89 42 3C 0B 72 
   592)     85845.2  Rx     14320601  8  12 5C 16 44 12 5C 16 44 
   593)     85845.5  Rx     08F08B00  0  
   594)     85846.1  Rx     14321001  8  00 00 00 00 00 8A 00 00 
   595)     85846.6  Rx     14320501  8  15 4A 00 55 00 AA 2B 03 
   596)     85868.4  Rx     1C105000  0  
   597)     85891.4  Rx     08508A00  1  00 
   598)     86843.9  Rx     14320101  8  00 40 12 C1 00 14 00 00 
   599)     86844.5  Rx     14320501  8  15 4A 00 55 00 AA 2B 03 
   600)     86845.0  Rx     14321001  8  00 00 00 00 00 8C 00 00 
   601)     86845.6  Rx     14320601  8  12 5C 16 44 12 5C 16 44 
   602)     86868.2  Rx     1C105000  0  
   603)     87844.0  Rx     14320101  8  00 40 12 C1 00 14 00 00 
   604)     87844.5  Rx     09508A00  6  53 89 42 3C 0B 72 
   605)     87845.1  Rx     14320601  8  12 5C 16 44 12 5C 16 44 
   606)     87845.4  Rx     08708B00  0  
   607)     87845.9  Rx     14321001  8  00 00 00 00 00 8E 00 00 
   608)     87846.5  Rx     14320501  8  15 4A 00 55 00 AA 2B 03 
   609)     87868.3  Rx     1C105000  0  
   610)     87891.3  Rx     08508A00  1  00 
   611)     88844.5  Rx     14320101  8  00 40 12 C1 00 14 00 00 
   612)     88845.1  Rx     14320501  8  15 4A 00 55 00 AA 2B 03 
   613)     88845.6  Rx     14321001  8  00 00 00 00 00 90 00 00 
   614)     88846.2  Rx     14320601  8  12 5C 16 44 12 5C 16 44 
   615)     88868.8  Rx     1C105000  0  
   616)     89844.4  Rx     14320101  8  00 40 12 C1 00 14 00 00 
   617)     89844.9  Rx     09508A00  6  53 89 42 3C 0B 72 
   618)     89845.5  Rx     14320601  8  12 5C 16 44 12 5C 16 44 
   619)     89846.1  Rx     14321001  8  00 00 00 00 00 92 00 00 
   620)     89846.6  Rx     14320501  8  15 4A 00 55 00 AA 2B 03 
   621)     89868.7  Rx     1C105000  0  
   622)     89891.7  Rx     08508A00  1  00 
   623)     90844.8  Rx     14320101  8  00 40 12 C1 00 14 00 00 
   624)     90845.3  Rx     14320501  8  15 4A 00 55 00 AA 2B 03 
   625)     90845.9  Rx     14321001  8  00 00 00 00 00 94 00 00 
   626)     90846.5  Rx     14320601  8  12 5C 16 44 12 5C 16 44 
   627)     90869.0  Rx     1C105000  0  
   628)     91844.8  Rx     14320101  8  00 40 12 C1 00 14 00 00 
   629)     91845.3  Rx     09508A00  6  53 89 42 3C 0B 72 
   630)     91845.9  Rx     14320601  8  12 5C 16 44 12 5C 16 44 
   631)     91846.4  Rx     14321001  8  00 00 00 00 00 96 00 00 
   632)     91847.0  Rx     14320501  8  15 4A 00 55 00 AA 2B 03 
   633)     91869.0  Rx     1C105000  0  
   634)     91892.0  Rx     08508A00  1  00 
   635)     92844.9  Rx     14320101  8  00 40 12 C1 00 14 00 00 
   636)     92845.4  Rx     14320501  8  15 4A 00 55 00 AA 2B 03 
   637)     92846.0  Rx     14321001  8  00 00 00 00 00 98 00 00 
   638)     92846.5  Rx     14320601  8  12 5C 16 44 12 5C 16 44 
   639)     92869.1  Rx     1C105000  0  
   640)     93844.9  Rx     14320101  8  00 40 12 C1 00 14 00 00 
   641)     93845.4  Rx     09508A00  6  53 89 42 3C 0B 72 
   642)     93845.9  Rx     14320601  8  12 5C 16 44 12 5C 16 44 
   643)     93846.5  Rx     14321001  8  00 00 00 00 00 9A 00 00 
   644)     93847.0  Rx     14320501  8  15 4A 00 55 00 AA 2B 03 
   645)     93869.1  Rx     1C105000  0  
   646)     93892.2  Rx     08508A00  1  00 
   647)     94845.1  Rx     14320101  8  00 40 12 C1 00 14 00 00 
   648)     94845.6  Rx     14320501  8  15 4A 00 55 00 AA 2B 03 
   649)     94846.2  Rx     14321001  8  00 00 00 00 00 9C 00 00 
   650)     94846.8  Rx     14320601  8  12 5C 16 44 12 5C 16 44 
   651)     94869.4  Rx     1C105000  0  
   652)     95845.2  Rx     14320101  8  00 40 12 C1 00 14 00 00 
   653)     95845.6  Rx     09508A00  6  53 89 42 3C 0B 72 
   654)     95846.2  Rx     14320601  8  12 5C 16 44 12 5C 16 44 
   655)     95846.4  Rx     08F08B00  0  
   656)     95847.0  Rx     14321001  8  00 00 00 00 00 9E 00 00 
   657)     95847.6  Rx     14320501  8  15 4A 00 55 00 AA 2B 03 
   658)     95869.4  Rx     1C105000  0  
   659)     95892.4  Rx     08508A00  1  00 
   660)     96845.3  Rx     14320101  8  00 40 12 C1 00 14 00 00 
   661)     96845.9  Rx     14320501  8  15 4A 00 55 00 AA 2B 03 
   662)     96846.4  Rx     14321001  8  00 00 00 00 00 A0 00 00 
   663)     96847.0  Rx     14320601  8  12 5C 16 44 12 5C 16 44 
   664)     96869.5  Rx     1C105000  0  
   665)     97845.5  Rx     14320101  8  00 40 12 C1 00 14 00 00 
   666)     97846.0  Rx     09508A00  6  53 89 42 3C 0B 72 
   667)     97846.6  Rx     14320601  8  12 5C 16 44 12 5C 16 44 
   668)     97846.8  Rx     08708B00  0  
   669)     97847.4  Rx     14321001  8  00 00 00 00 00 A2 00 00 
   670)     97848.0  Rx     14320501  8  15 4A 00 55 00 AA 2B 03 
   671)     97869.8  Rx     1C105000  0  
   672)     97892.8  Rx     08508A00  1  00 
   673)     98845.8  Rx     14320101  8  00 40 12 C1 00 14 00 00 
   674)     98846.3  Rx     14320501  8  15 4A 00 55 00 AA 2B 03 
   675)     98846.9  Rx     14321001  8  00 00 00 00 00 A4 00 00 
   676)     98847.4  Rx     14320601  8  12 5C 16 44 12 5C 16 44 
   677)     98870.0  Rx     1C105000  0  
