;$FILEVERSION=1.1
;$STARTTIME=46018.8872282638
;
;   Start time: 27/12/2025 23:17:36.521.9
;   PCAN-Channel: PCAN_USBBUS1
;   Driver version: PCBUSB 0.13.0.1978 - (IOUSBKit, x86_64)
;   Generated by PCBUSB API, version 4.9.0.1
;
;   Message Number
;   |         Time Offset (ms)
;   |         |        Type
;   |         |        |        ID (hex)
;   |         |        |        |     Data Length Code
;   |         |        |        |     |   Data Bytes (hex) ...
;   |         |        |        |     |   |
;---+--   ----+----  --+--  ----+---  +  -+ -- -- -- -- -- -- --
     1)         1.1  Rx     1A001000  0  
     2)         1.5  Rx     1A001000  0  
     3)         1.8  Rx     1A001000  0  
     4)       657.3  Rx     1A001000  0  
     5)      1657.2  Rx     1A001000  0  
     6)      2657.2  Rx     1A001000  0  
     7)      3657.2  Rx     1A001000  0  
     8)      4657.1  Rx     1A001000  0  
     9)      5657.0  Rx     1A001000  0  
    10)      6656.9  Rx     1A001000  0  
    11)      7656.7  Rx     1A001000  0  
    12)      8656.7  Rx     1A001000  0  
    13)      9656.6  Rx     1A001000  0  
    14)     10656.6  Rx     1A001000  0  
    15)     11656.6  Rx     1A001000  0  
    16)     12656.5  Rx     1A001000  0  
    17)     13656.4  Rx     1A001000  0  
    18)     14656.3  Rx     1A001000  0  
    19)     15656.1  Rx     1A001000  0  
    20)     16656.1  Rx     1A001000  0  
    21)     17655.9  Rx     1A001000  0  
    22)     18655.8  Rx     1A001000  0  
    23)     19655.8  Rx     1A001000  0  
    24)     20655.7  Rx     1A001000  0  
    25)     21655.6  Rx     1A001000  0  
    26)     22655.4  Rx     1A001000  0  
    27)     23655.3  Rx     1A001000  0  
    28)     24091.8  Rx     08508A00  1  10 
    29)     24092.1  Rx     08508A00  1  10 
    30)     24092.4  Rx     08508A00  1  10 
    31)     24092.8  Rx     08508A00  1  10 
    32)     24093.1  Rx     08508A00  1  10 
    33)     24093.4  Rx     08508A00  1  10 
    34)     24093.7  Rx     08508A00  1  10 
    35)     24094.0  Rx     08508A00  1  10 
    36)     24094.3  Rx     08508A00  1  10 
    37)     24094.6  Rx     08508A00  1  10 
    38)     24094.9  Rx     08508A00  1  10 
    39)     24095.3  Rx     08508A00  1  10 
    40)     24095.6  Rx     08508A00  1  10 
    41)     24095.9  Rx     08508A00  1  10 
    42)     24096.2  Rx     08508A00  1  10 
    43)     24096.5  Rx     08508A00  1  10 
    44)     24292.0  Rx     08508A00  1  00 
    45)     24292.3  Rx     08508A00  1  00 
    46)     24349.9  Rx     14320101  8  00 40 7F FF FF FF FF FF 
    47)     24423.1  Rx     08508A00  1  00 
    48)     24423.4  Rx     08508A00  1  00 
    49)     24424.2  Rx     08508A00  1  00 
    50)     24424.5  Rx     08508A00  1  00 
    51)     24425.3  Rx     08508A00  1  00 
    52)     24425.6  Rx     08508A00  1  00 
    53)     24426.4  Rx     08508A00  1  00 
    54)     24426.7  Rx     08508A00  1  00 
    55)     24427.0  Rx     08508A00  1  00 
    56)     24427.6  Rx     08508A00  1  00 
    57)     24427.9  Rx     08508A00  1  00 
    58)     24428.2  Rx     08508A00  1  00 
    59)     24493.5  Rx     08508A00  1  00 
    60)     24494.2  Rx     14320101  8  00 40 7F FF FF FF FF FF 
    61)     24494.7  Rx     14320101  8  00 40 7F FF FF FF FF FF 
    62)     24495.3  Rx     14320101  8  00 40 7F FF FF FF FF FF 
    63)     24581.0  Rx     00102000  0  
    64)     24655.2  Rx     1A001000  0  
    65)     24755.6  Rx     1A102000  0  
    66)     24756.1  Rx     0200DBFB  0  
    67)     24855.6  Rx     1A102100  0  
    68)     24856.0  Rx     02010200  0  
    69)     24955.5  Rx     1A102200  0  
    70)     24956.0  Rx     020203A0  0  
    71)     25055.5  Rx     1A102300  0  
    72)     25056.0  Rx     020300DC  0  
    73)     25155.4  Rx     1A103000  0  
    74)     25155.9  Rx     1B4031FF  0  
    75)     25156.3  Rx     1B503201  0  
    76)     25175.4  Rx     1A102000  0  
    77)     25580.2  Rx     1C105000  0  
    78)     25580.6  Rx     1D504001  2  00 00 
    79)     25581.3  Rx     1D404101  2  20 01 
    80)     26529.7  Rx     08508A00  1  00 
    81)     26574.9  Rx     19502001  2  59 D2 
    82)     26575.7  Rx     19402101  2  DA AA 
    83)     26576.0  Rx     19503001  0  
    84)     26576.7  Rx     19403101  0  
    85)     26577.7  Rx     19544001  8  00 20 00 01 0B B8 01 2C 
    86)     26579.8  Rx     1C105000  0  
    87)     26580.1  Rx     1D504001  2  59 D2 
    88)     26590.8  Rx     1D404101  2  23 01 
    89)     26671.7  Rx     194C4001  0  
    90)     26672.3  Rx     19584001  8  00 01 54 E6 41 DB 08 02 
    91)     26769.4  Rx     194C4001  0  
    92)     26770.0  Rx     19584001  8  54 E6 41 DB 08 02 00 00 
    93)     26863.6  Rx     194C4001  0  
    94)     26864.2  Rx     195C4001  8  17 70 83 20 83 84 57 3E 
    95)     26961.1  Rx     194C4001  0  
    96)     26961.7  Rx     19502001  2  59 D2 
    97)     26965.8  Rx     19402101  2  DA AA 
    98)     26966.4  Rx     19502001  2  59 D2 
    99)     27560.1  Rx     14320101  8  00 40 12 C3 FF FF FF FF 
   100)     27560.6  Rx     14320501  8  14 E6 00 00 00 00 0B 02 
   101)     27561.2  Rx     14320601  8  14 A0 15 36 13 24 15 E0 
   102)     27579.3  Rx     1C105000  0  
   103)     27579.7  Rx     19502001  2  59 D2 
   104)     27580.0  Rx     1D504001  2  59 D2 
   105)     27655.1  Rx     1A001000  0  
   106)     27754.2  Rx     1A102000  0  
   107)     27755.1  Rx     0200DBFB  0  
   108)     27854.2  Rx     1A102100  0  
   109)     27855.1  Rx     02010200  0  
   110)     27954.1  Rx     1A102200  0  
   111)     27955.1  Rx     020203A0  0  
   112)     28054.1  Rx     1A102300  0  
   113)     28055.1  Rx     020300DC  0  
   114)     28154.1  Rx     1A103000  0  
   115)     28155.1  Rx     1B4031FF  0  
   116)     28155.4  Rx     1B503201  0  
   117)     28174.0  Rx     1A102000  0  
   118)     28274.2  Rx     19502001  2  59 D2 
   119)     28275.4  Rx     19402101  2  DA AA 
   120)     28275.8  Rx     19503001  0  
   121)     28276.4  Rx     19403101  0  
   122)     28277.4  Rx     19544001  8  00 20 00 01 0B B8 01 2C 
   123)     28371.2  Rx     194C4001  0  
   124)     28371.9  Rx     19584001  8  00 01 54 E6 41 DB 08 02 
   125)     28471.6  Rx     194C4001  0  
   126)     28472.2  Rx     19584001  8  54 E6 41 DB 08 02 00 00 
   127)     28559.6  Rx     14320101  8  00 40 12 C3 FF FF FF FF 
   128)     28561.1  Rx     14321001  8  00 00 00 00 00 00 00 00 
   129)     28561.7  Rx     14320501  8  14 E6 00 00 00 00 0B 02 
   130)     28562.3  Rx     14320601  8  14 A0 15 36 13 24 15 E0 
   131)     28565.0  Rx     08508A00  1  00 
   132)     28571.5  Rx     194C4001  0  
   133)     28572.2  Rx     195C4001  8  17 70 83 20 83 84 57 3E 
   134)     28578.9  Rx     1C105000  0  
   135)     28579.2  Rx     1D504001  2  59 D2 
   136)     28587.7  Rx     1D404101  2  23 01 
   137)     28665.3  Rx     194C4001  0  
   138)     28665.8  Rx     19502001  2  59 D2 
   139)     28666.6  Rx     19402101  2  DA AA 
   140)     29344.9  Rx     1A001000  0  
   141)     29443.5  Rx     1A102000  0  
   142)     29445.0  Rx     0200DBFB  0  
   143)     29543.5  Rx     1A102100  0  
   144)     29545.0  Rx     02010200  0  
   145)     29559.1  Rx     14320101  8  00 40 12 C3 FF FF FF FF 
   146)     29559.7  Rx     14320501  8  14 E6 00 00 00 00 0B 02 
   147)     29560.2  Rx     14321001  8  00 00 00 00 00 00 00 00 
   148)     29560.8  Rx     14320601  8  14 A0 15 36 13 24 15 E0 
   149)     29578.5  Rx     1C105000  0  
   150)     29578.8  Rx     19502001  2  59 D2 
   151)     29579.2  Rx     1D504001  2  59 D2 
   152)     29643.5  Rx     1A102200  0  
   153)     29645.1  Rx     020203A0  0  
   154)     29743.4  Rx     1A102300  0  
   155)     29745.1  Rx     020300DC  0  
   156)     29843.4  Rx     1A103000  0  
   157)     29845.1  Rx     1B4031FF  0  
   158)     29845.4  Rx     1B503201  0  
   159)     29863.4  Rx     1A102000  0  
   160)     29963.6  Rx     19502001  2  59 D2 
   161)     29965.3  Rx     19402101  2  DA AA 
   162)     29965.7  Rx     19503001  0  
   163)     29966.4  Rx     19403101  0  
   164)     29967.4  Rx     19544001  8  00 20 00 01 0B B8 01 2C 
   165)     30061.1  Rx     194C4001  0  
   166)     30061.7  Rx     19584001  8  00 01 54 E6 41 DB 08 02 
   167)     30161.5  Rx     194C4001  0  
   168)     30162.1  Rx     19584001  8  54 E6 41 DB 08 02 00 00 
   169)     30261.5  Rx     194C4001  0  
   170)     30262.1  Rx     195C4001  8  17 70 83 20 83 84 57 3E 
   171)     30359.2  Rx     194C4001  0  
   172)     30359.7  Rx     19502001  2  59 D2 
   173)     30360.5  Rx     19402101  2  DA AA 
   174)     30558.7  Rx     14320101  8  00 40 12 C1 FF FF FF FF 
   175)     30559.1  Rx     09508A00  6  52 D3 E0 00 E0 00 
   176)     30559.7  Rx     14320601  8  14 A0 15 36 13 24 15 E0 
   177)     30560.3  Rx     14321001  8  00 00 00 00 00 00 00 00 
   178)     30560.9  Rx     14320501  8  14 E6 00 00 00 00 0B 02 
   179)     30570.6  Rx     08508A00  1  00 
   180)     30578.0  Rx     1C105000  0  
   181)     30578.4  Rx     1D504001  2  59 D2 
   182)     31558.1  Rx     14320101  8  00 40 12 C3 FF FF FF FF 
   183)     31558.7  Rx     14320501  8  14 E6 00 59 00 99 2B 02 
   184)     31559.3  Rx     14321001  8  00 00 00 00 00 00 00 00 
   185)     31559.9  Rx     14324001  8  00 00 00 57 00 C6 E8 7F 
   186)     31560.4  Rx     14320601  8  14 A0 15 36 13 24 15 E0 
   187)     31577.5  Rx     1C105000  0  
   188)     31577.9  Rx     1D504001  2  59 D2 
   189)     32557.7  Rx     14320101  8  00 40 12 C3 FF FF FF FF 
   190)     32558.2  Rx     09508A00  6  52 E3 E0 00 E0 00 
   191)     32558.7  Rx     14320601  8  14 A0 15 36 13 24 15 E0 
   192)     32559.3  Rx     14321001  8  00 00 00 00 00 00 00 00 
   193)     32559.8  Rx     14320501  8  14 E6 00 59 00 99 2B 02 
   194)     32574.6  Rx     08508A00  1  00 
   195)     32577.0  Rx     1C105000  0  
   196)     32577.4  Rx     1D504001  2  59 D2 
   197)     32597.0  Rx     01503001  0  
   198)     33557.2  Rx     14320101  8  00 40 12 C3 FF FF FF FF 
   199)     33557.7  Rx     14320501  8  14 E6 00 59 00 99 2B 02 
   200)     33558.3  Rx     14321001  8  00 00 00 00 00 00 00 00 
   201)     33558.8  Rx     14320601  8  14 A0 15 36 13 24 15 E0 
   202)     33576.5  Rx     1C105000  0  
   203)     34556.6  Rx     14320101  8  00 40 12 C3 FF FF FF FF 
   204)     34557.1  Rx     09508A00  6  52 F3 E0 00 E0 00 
   205)     34557.7  Rx     14320601  8  14 A0 15 36 13 24 15 E0 
   206)     34558.0  Rx     08F08B00  0  
   207)     34558.5  Rx     14321001  8  00 00 00 00 00 00 00 00 
   208)     34559.1  Rx     14320501  8  14 E6 00 59 00 99 2B 02 
   209)     34574.1  Rx     08508A00  1  00 
   210)     34576.0  Rx     1C105000  0  
   211)     35556.1  Rx     14320101  8  00 40 12 C3 FF FF FF FF 
   212)     35556.7  Rx     14320501  8  14 E6 00 59 00 99 2B 02 
   213)     35557.2  Rx     14321001  8  00 00 00 00 00 00 00 00 
   214)     35557.8  Rx     14320601  8  14 A0 15 36 13 24 15 E0 
   215)     35575.5  Rx     1C105000  0  
   216)     36555.6  Rx     14320101  8  00 40 12 C3 FF FF FF FF 
   217)     36556.1  Rx     09508A00  6  53 03 E0 00 E0 00 
   218)     36556.7  Rx     14320601  8  14 A0 15 36 13 24 15 E0 
   219)     36556.9  Rx     08708B00  0  
   220)     36557.5  Rx     14321001  8  00 00 00 00 00 00 00 00 
   221)     36558.1  Rx     14320501  8  14 E6 00 59 00 99 2B 02 
   222)     36573.1  Rx     08508A00  1  00 
   223)     36575.0  Rx     1C105000  0  
   224)     37555.2  Rx     14320101  8  00 40 12 C3 FF FF FF FF 
   225)     37555.7  Rx     14320501  8  14 E6 00 59 00 99 2B 02 
   226)     37556.3  Rx     14321001  8  00 00 00 00 00 00 00 00 
   227)     37556.9  Rx     14320601  8  14 A0 15 36 13 24 15 E0 
   228)     37574.5  Rx     1C105000  0  
   229)     38554.8  Rx     14320101  8  00 40 12 C3 FF FF FF FF 
   230)     38555.2  Rx     09508A00  6  53 13 E0 00 E0 00 
   231)     38555.8  Rx     14320601  8  14 A0 15 36 13 24 15 E0 
   232)     38556.4  Rx     14321001  8  00 00 00 00 00 00 00 00 
   233)     38556.9  Rx     14320501  8  14 E6 00 59 00 99 2B 02 
   234)     38572.2  Rx     08508A00  1  00 
   235)     38574.1  Rx     1C105000  0  
   236)     39554.4  Rx     14320101  8  00 40 12 C3 FF FF FF FF 
   237)     39554.9  Rx     14320501  8  14 E6 00 59 00 99 2B 02 
   238)     39555.5  Rx     14321001  8  00 00 00 00 00 00 00 00 
   239)     39556.1  Rx     14320601  8  14 A0 15 36 13 24 15 E0 
   240)     39573.8  Rx     1C105000  0  
   241)     40553.9  Rx     14320101  8  00 40 12 C3 FF FF FF FF 
   242)     40554.4  Rx     09508A00  6  53 23 E0 00 E0 00 
   243)     40554.9  Rx     14320601  8  14 A0 15 36 13 24 15 E0 
   244)     40555.5  Rx     14321001  8  00 00 00 00 00 00 00 00 
   245)     40556.1  Rx     14320501  8  14 E6 00 59 00 99 2B 02 
   246)     40571.4  Rx     08508A00  1  00 
   247)     40573.3  Rx     1C105000  0  
   248)     41292.7  Rx     08508A00  1  00 
   249)     41553.5  Rx     14320101  8  00 40 12 C3 FF FF FF FF 
   250)     41554.0  Rx     14320501  8  14 E6 00 59 00 99 2B 02 
   251)     41554.6  Rx     14321001  8  00 00 00 00 00 00 00 00 
   252)     41555.2  Rx     14320601  8  14 A0 15 36 13 24 15 E0 
   253)     41572.9  Rx     1C105000  0  
   254)     42392.7  Rx     08508A00  1  00 
   255)     42553.0  Rx     14320101  8  00 40 12 C3 FF FF FF FF 
   256)     42553.6  Rx     09508A00  6  53 33 E0 00 E0 00 
   257)     42554.1  Rx     14320601  8  14 A0 15 36 13 24 15 E0 
   258)     42554.7  Rx     14321001  8  00 00 00 00 00 00 00 00 
   259)     42555.2  Rx     14320501  8  14 E6 00 59 00 99 2B 02 
   260)     42572.5  Rx     1C105000  0  
   261)     43552.6  Rx     14320101  8  00 40 12 C3 FF FF FF FF 
   262)     43553.2  Rx     14320501  8  14 E6 00 59 00 99 2B 02 
   263)     43553.8  Rx     14321001  8  00 00 00 00 00 00 00 00 
   264)     43554.3  Rx     14320601  8  14 A0 15 36 13 24 15 E0 
   265)     43572.0  Rx     1C105000  0  
   266)     43696.6  Rx     08508A00  1  00 
   267)     44552.2  Rx     14320101  8  00 40 12 C3 FF FF FF FF 
   268)     44552.7  Rx     09508A00  6  53 43 E0 00 E0 00 
   269)     44553.2  Rx     14320601  8  14 A0 15 36 13 24 15 E0 
   270)     44553.5  Rx     08F08B00  0  
   271)     44554.1  Rx     14321001  8  00 00 00 00 00 00 00 00 
   272)     44554.6  Rx     14320501  8  14 E6 00 59 00 99 2B 02 
   273)     44571.6  Rx     1C105000  0  
   274)     45058.7  Rx     08508A00  1  00 
   275)     45551.8  Rx     14320101  8  00 40 12 C3 FF FF FF FF 
   276)     45552.4  Rx     14320501  8  14 E6 00 59 00 99 2B 02 
   277)     45553.0  Rx     14321001  8  00 00 00 00 00 00 00 00 
   278)     45553.5  Rx     14320601  8  14 A0 15 36 13 24 15 E0 
   279)     45571.2  Rx     1C105000  0  
   280)     46158.3  Rx     08508A00  1  00 
   281)     46551.4  Rx     14320101  8  00 40 12 C3 FF FF FF FF 
   282)     46551.9  Rx     09508A00  6  53 53 E0 00 E0 00 
   283)     46552.4  Rx     14320601  8  14 A0 15 36 13 24 15 E0 
   284)     46552.7  Rx     08708B00  0  
   285)     46553.3  Rx     14321001  8  00 00 00 00 00 00 00 00 
   286)     46553.8  Rx     14320501  8  14 E6 00 59 00 99 2B 02 
   287)     46570.8  Rx     1C105000  0  
   288)     47191.0  Rx     08508A00  1  00 
   289)     47550.9  Rx     14320101  8  00 40 12 C3 FF FF FF FF 
   290)     47551.5  Rx     14320501  8  14 E6 00 59 00 99 2B 02 
   291)     47552.0  Rx     14321001  8  00 00 00 00 00 00 00 00 
   292)     47552.6  Rx     14320601  8  14 A0 15 36 13 24 15 E0 
   293)     47570.3  Rx     1C105000  0  
   294)     47990.4  Rx     08508A00  1  00 
   295)     48290.0  Rx     08508A00  1  00 
   296)     48550.5  Rx     14320101  8  00 40 12 C3 FF FF FF FF 
   297)     48551.0  Rx     09508A00  6  53 63 E0 00 E0 00 
   298)     48551.6  Rx     14320601  8  14 A0 15 36 13 24 15 E0 
   299)     48552.1  Rx     14321001  8  00 00 00 00 00 00 00 00 
   300)     48552.7  Rx     14320501  8  14 E6 00 59 00 99 2B 02 
   301)     48569.9  Rx     1C105000  0  
   302)     48689.8  Rx     08508A00  1  00 
   303)     49378.9  Rx     08508A00  1  00 
   304)     49550.0  Rx     14320101  8  00 40 12 C3 FF FF FF FF 
   305)     49550.5  Rx     14320501  8  14 E6 00 59 00 99 2B 02 
   306)     49551.1  Rx     14321001  8  00 00 00 00 00 00 00 00 
   307)     49551.7  Rx     14320601  8  14 A0 15 36 13 24 15 E0 
   308)     49569.4  Rx     1C105000  0  
   309)     50549.5  Rx     14320101  8  00 40 12 C3 FF FF FF FF 
   310)     50549.9  Rx     09508A00  6  53 73 E0 00 E0 00 
   311)     50550.5  Rx     14320601  8  14 A0 15 36 13 24 15 E0 
   312)     50551.1  Rx     14321001  8  00 00 00 00 00 00 00 00 
   313)     50551.6  Rx     14320501  8  14 E6 00 59 00 99 2B 02 
   314)     50568.8  Rx     1C105000  0  
   315)     51373.7  Rx     08508A00  1  00 
   316)     51549.0  Rx     14320101  8  00 40 12 C3 FF FF FF FF 
   317)     51549.5  Rx     14320501  8  14 E6 00 59 00 99 2B 02 
   318)     51550.1  Rx     14321001  8  00 00 00 00 00 00 00 00 
   319)     51550.6  Rx     14320601  8  14 A0 15 36 13 24 15 E0 
   320)     51568.3  Rx     1C105000  0  
   321)     52548.5  Rx     14320101  8  00 40 12 C3 FF FF FF FF 
   322)     52549.0  Rx     09508A00  6  53 83 E0 00 E0 00 
   323)     52549.5  Rx     14320601  8  14 A0 15 36 13 24 15 E0 
   324)     52550.1  Rx     14321001  8  00 00 00 00 00 00 00 00 
   325)     52550.7  Rx     14320501  8  14 E6 00 59 00 99 2B 02 
   326)     52567.9  Rx     1C105000  0  
